Circuit: * C:\Users\---\Desktop\DCE\dce-g5-proyecto_integrador\Checkpoint 2\Simulación.asc

Early termination of direct N-R iteration.
Direct Newton iteration failed to find .op point.  (Use ".option noopiter" to skip.)
Starting Gmin stepping
Gmin = 10
vernier = 0.5
vernier = 0.25
Gmin = 2.09715
vernier = 0.125
vernier = 0.0625
vernier = 0.03125
vernier = 0.015625
vernier = 0.0078125
vernier = 0.00390625
vernier = 0.00195313
vernier = 0.000976563
vernier = 0.000488281
Gmin = 0
Gmin = 0
Gmin stepping failed

Starting source stepping with srcstepmethod=0
Source Step = 3.0303%
Source Step = 33.3333%
Source Step = 63.6364%
Source Step = 93.9394%
Source stepping succeeded in finding the operating point.

Semiconductor Device Operating Points:
                        --- Diodes ---
Name:    d:u1b:p    d:u1b:ln    d:u1b:lp     d:u1b:e     d:u1b:c
Model:   u1b:dx      u1b:dx      u1b:dx      u1b:dx      u1b:dx
Id:     -1.00e-11   -4.03e-11   -3.97e-11   -4.97e-12   -2.33e-12
Vd:     -1.00e+01   -4.03e+01   -3.97e+01   -4.97e+00   -2.33e+00
Req:     1.00e+12    1.00e+12    1.00e+12    1.00e+12    1.00e+12
CAP:     0.00e+00    0.00e+00    0.00e+00    0.00e+00    0.00e+00

Name:    d:u1a:p    d:u1a:ln    d:u1a:lp     d:u1a:e     d:u1a:c
Model:   u1a:dx      u1a:dx      u1a:dx      u1a:dx      u1a:dx
Id:     -1.00e-11   -4.00e-11   -4.00e-11   -4.58e-12   -2.72e-12
Vd:     -1.00e+01   -4.00e+01   -4.00e+01   -4.58e+00   -2.72e+00
Req:     1.00e+12    1.00e+12    1.00e+12    1.00e+12    1.00e+12
CAP:     0.00e+00    0.00e+00    0.00e+00    0.00e+00    0.00e+00

Name:    d:u2b:p    d:u2b:ln    d:u2b:lp     d:u2b:e     d:u2b:c
Model:   u2b:dx      u2b:dx      u2b:dx      u2b:dx      u2b:dx
Id:     -1.00e-11   -3.99e-11   -4.01e-11    7.42e-06   -7.89e-12
Vd:     -1.00e+01   -3.99e+01   -4.01e+01    5.94e-01   -7.89e+00
Req:     1.00e+12    1.00e+12    1.00e+12    3.49e+03    1.00e+12
CAP:     0.00e+00    0.00e+00    0.00e+00    0.00e+00    0.00e+00

Name:    d:u2a:p    d:u2a:ln    d:u2a:lp     d:u2a:e     d:u2a:c
Model:   u2a:dx      u2a:dx      u2a:dx      u2a:dx      u2a:dx
Id:     -1.00e-11   -3.94e-11   -4.06e-11   -4.07e-12   -3.23e-12
Vd:     -1.00e+01   -3.94e+01   -4.06e+01   -4.07e+00   -3.23e+00
Req:     1.00e+12    1.00e+12    1.00e+12    1.00e+12    1.00e+12
CAP:     0.00e+00    0.00e+00    0.00e+00    0.00e+00    0.00e+00

                        --- Bipolar Transistors ---
Name:     q:u1b:2     q:u1b:1     q:u1a:2     q:u1a:1     q:u2b:2
Model:    u1b:qx      u1b:qx      u1a:qx      u1a:qx      u2b:qx
Ib:      -1.99e-08   -1.99e-08   -1.99e-08   -1.99e-08   -3.86e-08
Ic:      -4.97e-06   -4.98e-06   -4.98e-06   -4.98e-06   -9.65e-06
Vbe:     -5.83e-01   -5.83e-01   -5.83e-01   -5.83e-01   -6.00e-01
Vbc:      5.53e+00    5.53e+00    5.14e+00    5.14e+00    4.92e+00
Vce:     -6.11e+00   -6.11e+00   -5.73e+00   -5.73e+00   -5.52e+00
BetaDC:   2.50e+02    2.50e+02    2.50e+02    2.50e+02    2.50e+02
Gm:       1.92e-04    1.92e-04    1.92e-04    1.93e-04    3.73e-04
Rpi:      1.30e+06    1.30e+06    1.30e+06    1.30e+06    6.70e+05
Rx:       0.00e+00    0.00e+00    0.00e+00    0.00e+00    0.00e+00
Ro:       0.00e+00    0.00e+00    0.00e+00    0.00e+00    1.50e+96
Cbe:      0.00e+00    0.00e+00    0.00e+00    0.00e+00    0.00e+00
Cbc:      0.00e+00    0.00e+00    0.00e+00    0.00e+00    0.00e+00
Cjs:      0.00e+00    0.00e+00    0.00e+00    0.00e+00    0.00e+00
BetaAC:   2.50e+02    2.50e+02    2.50e+02    2.50e+02    2.50e+02
Cbx:      0.00e+00    0.00e+00    0.00e+00    0.00e+00    0.00e+00
Ft:       0.00e+00    0.00e+00    0.00e+00    0.00e+00    0.00e+00

Name:     q:u2b:1     q:u2a:2     q:u2a:1       q9          q5
Model:    u2b:qx      u2a:qx      u2a:qx      tip42c      bc547b
Ib:      -1.28e-09   -1.96e-08   -1.97e-08   -3.24e-03    6.10e-06
Ic:      -3.21e-07   -4.90e-06   -4.92e-06   -3.27e-01    1.71e-03
Vbe:     -5.12e-01   -5.83e-01   -5.83e-01   -7.61e-01    6.54e-01
Vbc:      5.11e+00    7.95e+00    7.95e+00    2.26e+00    0.00e+00
Vce:     -5.62e+00   -8.54e+00   -8.54e+00   -3.02e+00    6.54e-01
BetaDC:   2.51e+02    2.50e+02    2.50e+02    1.01e+02    2.81e+02
Gm:       1.24e-05    1.89e-04    1.90e-04    1.05e+01    6.48e-02
Rpi:      2.02e+07    1.32e+06    1.31e+06    8.30e+00    4.29e+03
Rx:       0.00e+00    0.00e+00    0.00e+00    1.00e-01    1.00e+00
Ro:       0.00e+00    0.00e+00    0.00e+00    3.12e+02    3.59e+04
Cbe:      0.00e+00    0.00e+00    0.00e+00    2.46e-07    8.07e-11
Cbc:      0.00e+00    0.00e+00    0.00e+00    3.55e-10    2.31e-12
Cjs:      0.00e+00    0.00e+00    0.00e+00    0.00e+00    0.00e+00
BetaAC:   2.50e+02    2.50e+02    2.50e+02    8.75e+01    2.78e+02
Cbx:      0.00e+00    0.00e+00    0.00e+00    0.00e+00    1.42e-12
Ft:       0.00e+00    0.00e+00    0.00e+00    6.82e+06    1.22e+08

Name:       q6          q7          q8          q4          q3
Model:    bc547b      bc547b      bc547b      bc547b      bc547b
Ib:       6.10e-06   -1.41e-11    1.13e-05    2.86e-06    2.85e-06
Ic:       1.71e-03    9.05e-12    3.24e-03    8.46e-04    8.59e-04
Vbe:      6.54e-01   -4.99e+00    6.70e-01    6.33e-01    6.33e-01
Vbc:      9.67e-02   -8.99e+00   -1.59e+00   -2.81e+00   -4.13e+00
Vce:      5.57e-01    4.00e+00    2.26e+00    3.44e+00    4.77e+00
BetaDC:   2.81e+02   -6.44e-01    2.86e+02    2.95e+02    3.02e+02
Gm:       6.47e-02    8.06e-96    1.21e-01    3.22e-02    3.27e-02
Rpi:      4.29e+03    1.00e+12    2.31e+03    9.13e+03    9.18e+03
Rx:       1.00e+00    1.00e+00    1.00e+00    1.00e+00    1.00e+00
Ro:       3.59e+04    0.00e+00    1.95e+04    7.62e+04    7.66e+04
Cbe:      8.07e-11    6.69e-12    1.13e-10    5.73e-11    5.74e-11
Cbc:      2.51e-12    9.08e-13    1.44e-12    1.25e-12    1.13e-12
Cjs:      0.00e+00    0.00e+00    0.00e+00    0.00e+00    0.00e+00
BetaAC:   2.77e+02    8.06e-84    2.79e+02    2.94e+02    3.00e+02
Cbx:      1.54e-12    5.58e-13    8.83e-13    7.67e-13    6.92e-13
Ft:       1.22e+08    1.95e-02    1.67e+08    8.65e+07    8.79e+07

Name:       q2          q1
Model:    bc557b      bc557b
Ib:      -2.49e-06   -2.64e-06
Ic:      -8.58e-04   -8.54e-04
Vbe:     -6.21e-01   -6.23e-01
Vbc:      1.33e+00    0.00e+00
Vce:     -1.95e+00   -6.23e-01
BetaDC:   3.44e+02    3.24e+02
Gm:       3.25e-02    3.23e-02
Rpi:      1.06e+04    9.98e+03
Rx:       1.00e+00    1.00e+00
Ro:       2.57e+04    2.42e+04
Cbe:      5.02e-11    5.03e-11
Cbc:      2.65e-12    6.80e-12
Cjs:      0.00e+00    0.00e+00
BetaAC:   3.44e+02    3.23e+02
Cbx:      1.57e-12    4.02e-12
Ft:       9.50e+07    8.43e+07

                        --- VDMOSFET Transistors ---
Name:          m1
Model:       2n7002
Id:          4.03e-11
Vgs:         0.00e+00
Vds:         5.80e-01
Vth:         1.60e+00
Gm:          2.15e-16
Gds:         0.00e+00
Cgs:         5.00e-11
Cgd:         3.97e-11
Cbody:       3.98e-11



Date: Wed Oct 30 23:27:41 2024
Total elapsed time: 1.684 seconds.

tnom = 27
temp = 27
method = trap
totiter = 1689
traniter = 0
tranpoints = 0
accept = 0
rejected = 0
matrix size = 169
fillins = 1095
solver = Normal

