Circuit: * C:\Users\---\Desktop\DCE\dce-g5-proyecto_integrador\Checkpoint 2\Simulación.asc

WARNING: Node N029 is floating.
WARNING: Node N006 is floating.

WARNING: Less than two connections to node N029.  This node is used by LP.
WARNING: Less than two connections to node N006.  This node is used by C4.
Early termination of direct N-R iteration.
Direct Newton iteration failed to find .op point.  (Use ".option noopiter" to skip.)
Starting Gmin stepping
Gmin = 10
vernier = 0.5
vernier = 0.25
vernier = 0.125
vernier = 0.0625
Gmin = 8.61953
vernier = 0.03125
vernier = 0.015625
vernier = 0.0078125
vernier = 0.00390625
Gmin = 8.47038
vernier = 0.00195313
vernier = 0.000976563
vernier = 0.000488281
Gmin = 0
Gmin stepping failed

Starting source stepping with srcstepmethod=0
Source Step = 3.0303%
Source Step = 33.3333%
Source Step = 63.6364%
Source Step = 93.9394%
Source stepping succeeded in finding the operating point.

Semiconductor Device Operating Points:
                        --- Diodes ---
Name:    d:u1b:p    d:u1b:ln    d:u1b:lp     d:u1b:e     d:u1b:c
Model:   u1b:dx      u1b:dx      u1b:dx      u1b:dx      u1b:dx
Id:     -1.00e-11   -4.03e-11   -3.97e-11   -4.97e-12   -2.33e-12
Vd:     -1.00e+01   -4.03e+01   -3.97e+01   -4.97e+00   -2.33e+00
Req:     1.00e+12    1.00e+12    1.00e+12    1.00e+12    1.00e+12
CAP:     0.00e+00    0.00e+00    0.00e+00    0.00e+00    0.00e+00

Name:    d:u1a:p    d:u1a:ln    d:u1a:lp     d:u1a:e     d:u1a:c
Model:   u1a:dx      u1a:dx      u1a:dx      u1a:dx      u1a:dx
Id:     -1.00e-11   -4.01e-11   -3.99e-11   -4.58e-12   -2.72e-12
Vd:     -1.00e+01   -4.01e+01   -3.99e+01   -4.58e+00   -2.72e+00
Req:     1.00e+12    1.00e+12    1.00e+12    1.00e+12    1.00e+12
CAP:     0.00e+00    0.00e+00    0.00e+00    0.00e+00    0.00e+00

Name:    d:u2b:p    d:u2b:ln    d:u2b:lp     d:u2b:e     d:u2b:c
Model:   u2b:dx      u2b:dx      u2b:dx      u2b:dx      u2b:dx
Id:     -1.00e-11   -3.99e-11   -4.01e-11    4.94e-06   -7.88e-12
Vd:     -1.00e+01   -3.99e+01   -4.01e+01    5.83e-01   -7.88e+00
Req:     1.00e+12    1.00e+12    1.00e+12    5.24e+03    1.00e+12
CAP:     0.00e+00    0.00e+00    0.00e+00    0.00e+00    0.00e+00

Name:    d:u2a:p    d:u2a:ln    d:u2a:lp     d:u2a:e     d:u2a:c
Model:   u2a:dx      u2a:dx      u2a:dx      u2a:dx      u2a:dx
Id:     -1.00e-11   -3.91e-11   -4.09e-11   -3.89e-12   -3.41e-12
Vd:     -1.00e+01   -3.91e+01   -4.09e+01   -3.89e+00   -3.41e+00
Req:     1.00e+12    1.00e+12    1.00e+12    1.00e+12    1.00e+12
CAP:     0.00e+00    0.00e+00    0.00e+00    0.00e+00    0.00e+00

                        --- Bipolar Transistors ---
Name:     q:u1b:2     q:u1b:1     q:u1a:2     q:u1a:1     q:u2b:2
Model:    u1b:qx      u1b:qx      u1a:qx      u1a:qx      u2b:qx
Ib:      -1.99e-08   -1.99e-08   -1.99e-08   -1.99e-08   -3.23e-08
Ic:      -4.97e-06   -4.98e-06   -4.98e-06   -4.98e-06   -8.09e-06
Vbe:     -5.83e-01   -5.83e-01   -5.83e-01   -5.83e-01   -5.96e-01
Vbc:      5.53e+00    5.53e+00    5.14e+00    5.14e+00    4.94e+00
Vce:     -6.11e+00   -6.11e+00   -5.73e+00   -5.73e+00   -5.53e+00
BetaDC:   2.50e+02    2.50e+02    2.50e+02    2.50e+02    2.50e+02
Gm:       1.92e-04    1.92e-04    1.92e-04    1.93e-04    3.13e-04
Rpi:      1.30e+06    1.30e+06    1.30e+06    1.30e+06    8.00e+05
Rx:       0.00e+00    0.00e+00    0.00e+00    0.00e+00    0.00e+00
Ro:       0.00e+00    0.00e+00    0.00e+00    0.00e+00    2.42e+96
Cbe:      0.00e+00    0.00e+00    0.00e+00    0.00e+00    0.00e+00
Cbc:      0.00e+00    0.00e+00    0.00e+00    0.00e+00    0.00e+00
Cjs:      0.00e+00    0.00e+00    0.00e+00    0.00e+00    0.00e+00
BetaAC:   2.50e+02    2.50e+02    2.50e+02    2.50e+02    2.50e+02
Cbx:      0.00e+00    0.00e+00    0.00e+00    0.00e+00    0.00e+00
Ft:       0.00e+00    0.00e+00    0.00e+00    0.00e+00    0.00e+00

Name:     q:u2b:1     q:u2a:2     q:u2a:1       q9          q5
Model:    u2b:qx      u2a:qx      u2a:qx      tip42c      bc547b
Ib:      -7.52e-09   -1.94e-08   -1.95e-08   -5.53e-03    6.10e-06
Ic:      -1.88e-06   -4.85e-06   -4.89e-06   -5.02e-01    1.71e-03
Vbe:     -5.58e-01   -5.83e-01   -5.83e-01   -7.76e-01    6.54e-01
Vbc:      5.04e+00    9.56e+00    9.56e+00    4.67e-01    0.00e+00
Vce:     -5.60e+00   -1.01e+01   -1.01e+01   -1.24e+00    6.54e-01
BetaDC:   2.50e+02    2.50e+02    2.50e+02    9.08e+01    2.81e+02
Gm:       7.28e-05    1.88e-04    1.89e-04    1.50e+01    6.48e-02
Rpi:      3.44e+06    1.33e+06    1.32e+06    4.83e+00    4.29e+03
Rx:       0.00e+00    0.00e+00    0.00e+00    1.00e-01    1.00e+00
Ro:       1.37e+98    0.00e+00    0.00e+00    2.00e+02    3.59e+04
Cbe:      0.00e+00    0.00e+00    0.00e+00    3.50e-07    8.07e-11
Cbc:      0.00e+00    0.00e+00    0.00e+00    6.50e-10    2.31e-12
Cjs:      0.00e+00    0.00e+00    0.00e+00    0.00e+00    0.00e+00
BetaAC:   2.50e+02    2.50e+02    2.50e+02    7.24e+01    2.78e+02
Cbx:      0.00e+00    0.00e+00    0.00e+00    0.00e+00    1.42e-12
Ft:       0.00e+00    0.00e+00    0.00e+00    6.81e+06    1.22e+08

Name:       q6          q7          q8          q4          q3
Model:    bc547b      bc547b      bc547b      bc547b      bc547b
Ib:       6.10e-06   -1.58e-11    2.03e-05    2.76e-06    2.88e-06
Ic:       1.71e-03    1.08e-11    5.53e-03    8.39e-04    8.67e-04
Vbe:      6.54e-01   -4.98e+00    6.87e-01    6.32e-01    6.33e-01
Vbc:      9.70e-02   -1.08e+01    2.20e-01   -4.60e+00   -4.13e+00
Vce:      5.57e-01    5.79e+00    4.67e-01    5.24e+00    4.76e+00
BetaDC:   2.81e+02   -6.85e-01    2.73e+02    3.04e+02    3.02e+02
Gm:       6.47e-02    1.23e-95    2.04e-01    3.19e-02    3.30e-02
Rpi:      4.29e+03    1.00e+12    1.29e+03    9.47e+03    9.10e+03
Rx:       1.00e+00    1.00e+00    1.00e+00    1.00e+00    1.00e+00
Ro:       3.59e+04    0.00e+00    1.11e+04    7.90e+04    7.59e+04
Cbe:      8.07e-11    6.69e-12    1.58e-10    5.67e-11    5.77e-11
Cbc:      2.51e-12    8.63e-13    2.94e-12    1.09e-12    1.13e-12
Cjs:      0.00e+00    0.00e+00    0.00e+00    0.00e+00    0.00e+00
BetaAC:   2.77e+02    1.23e-83    2.62e+02    3.03e+02    3.00e+02
Cbx:      1.54e-12    5.30e-13    1.81e-12    6.73e-13    6.93e-13
Ft:       1.22e+08    1.97e-02    1.99e+08    8.69e+07    8.83e+07

Name:       q2          q1
Model:    bc557b      bc557b
Ib:      -3.39e-06   -2.66e-06
Ic:      -8.59e-04   -8.61e-04
Vbe:     -6.23e-01   -6.23e-01
Vbc:     -4.72e-01    0.00e+00
Vce:     -1.51e-01   -6.23e-01
BetaDC:   2.53e+02    3.24e+02
Gm:       3.25e-02    3.26e-02
Rpi:      9.66e+03    9.90e+03
Rx:       1.00e+00    1.00e+00
Ro:       6.41e+03    2.40e+04
Cbe:      5.05e-11    5.04e-11
Cbc:      9.57e-11    6.80e-12
Cjs:      0.00e+00    0.00e+00
BetaAC:   3.14e+02    3.23e+02
Cbx:      5.65e-11    4.02e-12
Ft:       2.55e+07    8.47e+07

                        --- VDMOSFET Transistors ---
Name:          m1
Model:       2n7002
Id:          1.18e-03
Vgs:         5.00e+00
Vds:         2.53e-03
Vth:         1.60e+00
Gm:          3.48e-04
Gds:         7.22e-01
Cgs:         5.00e-11
Cgd:         8.00e-11
Cbody:       4.99e-11



Date: Fri Sep 27 01:03:22 2024
Total elapsed time: 1.087 seconds.

tnom = 27
temp = 27
method = trap
totiter = 1706
traniter = 0
tranpoints = 0
accept = 0
rejected = 0
matrix size = 169
fillins = 1022
solver = Normal
Matrix Compiler1:    6692 opcodes
Matrix Compiler2: 31.50 KB object code size  6.1/4.3/[2.2]

