Circuit: * C:\Users\---\Desktop\DCE\dce-g5-proyecto_integrador\Checkpoint 2\Simulación.asc

WARNING: Node N028 is floating.

WARNING: Less than two connections to node N028.  This node is used by LP.
Early termination of direct N-R iteration.
Direct Newton iteration failed to find .op point.  (Use ".option noopiter" to skip.)
Starting Gmin stepping
Gmin = 10
vernier = 0.5
vernier = 0.25
vernier = 0.125
vernier = 0.0625
Gmin = 8.61953
vernier = 0.03125
vernier = 0.015625
vernier = 0.0078125
vernier = 0.00390625
Gmin = 8.47038
vernier = 0.00195313
vernier = 0.000976563
vernier = 0.000488281
Gmin = 0
Gmin stepping failed

Starting source stepping with srcstepmethod=0
Source Step = 3.0303%
Source Step = 33.3333%
Source Step = 63.6364%
Source Step = 93.9394%
Source stepping succeeded in finding the operating point.

Semiconductor Device Operating Points:
                        --- Diodes ---
Name:    d:u1b:p    d:u1b:ln    d:u1b:lp     d:u1b:e     d:u1b:c
Model:   u1b:dx      u1b:dx      u1b:dx      u1b:dx      u1b:dx
Id:     -1.00e-11   -4.02e-11   -3.98e-11   -4.97e-12   -2.33e-12
Vd:     -1.00e+01   -4.02e+01   -3.98e+01   -4.97e+00   -2.33e+00
Req:     1.00e+12    1.00e+12    1.00e+12    1.00e+12    1.00e+12
CAP:     0.00e+00    0.00e+00    0.00e+00    0.00e+00    0.00e+00

Name:    d:u1a:p    d:u1a:ln    d:u1a:lp     d:u1a:e     d:u1a:c
Model:   u1a:dx      u1a:dx      u1a:dx      u1a:dx      u1a:dx
Id:     -1.00e-11   -4.00e-11   -4.00e-11   -4.58e-12   -2.72e-12
Vd:     -1.00e+01   -4.00e+01   -4.00e+01   -4.58e+00   -2.72e+00
Req:     1.00e+12    1.00e+12    1.00e+12    1.00e+12    1.00e+12
CAP:     0.00e+00    0.00e+00    0.00e+00    0.00e+00    0.00e+00

Name:    d:u2b:p    d:u2b:ln    d:u2b:lp     d:u2b:e     d:u2b:c
Model:   u2b:dx      u2b:dx      u2b:dx      u2b:dx      u2b:dx
Id:     -1.00e-11   -3.99e-11   -4.01e-11    7.92e-06   -7.90e-12
Vd:     -1.00e+01   -3.99e+01   -4.01e+01    5.95e-01   -7.90e+00
Req:     1.00e+12    1.00e+12    1.00e+12    3.27e+03    1.00e+12
CAP:     0.00e+00    0.00e+00    0.00e+00    0.00e+00    0.00e+00

Name:    d:u2a:p    d:u2a:ln    d:u2a:lp     d:u2a:e     d:u2a:c
Model:   u2a:dx      u2a:dx      u2a:dx      u2a:dx      u2a:dx
Id:     -1.00e-11   -3.94e-11   -4.06e-11   -4.40e-12   -2.90e-12
Vd:     -1.00e+01   -3.94e+01   -4.06e+01   -4.40e+00   -2.90e+00
Req:     1.00e+12    1.00e+12    1.00e+12    1.00e+12    1.00e+12
CAP:     0.00e+00    0.00e+00    0.00e+00    0.00e+00    0.00e+00

                        --- Bipolar Transistors ---
Name:     q:u1b:2     q:u1b:1     q:u1a:2     q:u1a:1     q:u2b:2
Model:    u1b:qx      u1b:qx      u1a:qx      u1a:qx      u2b:qx
Ib:      -1.99e-08   -1.99e-08   -1.99e-08   -1.99e-08   -3.98e-08
Ic:      -4.97e-06   -4.98e-06   -4.98e-06   -4.98e-06   -9.96e-06
Vbe:     -5.83e-01   -5.83e-01   -5.83e-01   -5.83e-01   -6.01e-01
Vbc:      5.53e+00    5.53e+00    5.14e+00    5.14e+00    4.92e+00
Vce:     -6.11e+00   -6.11e+00   -5.73e+00   -5.73e+00   -5.52e+00
BetaDC:   2.50e+02    2.50e+02    2.50e+02    2.50e+02    2.50e+02
Gm:       1.92e-04    1.92e-04    1.92e-04    1.93e-04    3.85e-04
Rpi:      1.30e+06    1.30e+06    1.30e+06    1.30e+06    6.49e+05
Rx:       0.00e+00    0.00e+00    0.00e+00    0.00e+00    0.00e+00
Ro:       0.00e+00    0.00e+00    0.00e+00    0.00e+00    1.36e+96
Cbe:      0.00e+00    0.00e+00    0.00e+00    0.00e+00    0.00e+00
Cbc:      0.00e+00    0.00e+00    0.00e+00    0.00e+00    0.00e+00
Cjs:      0.00e+00    0.00e+00    0.00e+00    0.00e+00    0.00e+00
BetaAC:   2.50e+02    2.50e+02    2.50e+02    2.50e+02    2.50e+02
Cbx:      0.00e+00    0.00e+00    0.00e+00    0.00e+00    0.00e+00
Ft:       0.00e+00    0.00e+00    0.00e+00    0.00e+00    0.00e+00

Name:     q:u2b:1     q:u2a:2     q:u2a:1       q9          q5
Model:    u2b:qx      u2a:qx      u2a:qx      tip42c      bc547b
Ib:      -1.64e-11   -1.94e-08   -1.95e-08   -2.65e-05    6.10e-06
Ic:      -5.31e-09   -4.85e-06   -4.89e-06   -2.17e-03    1.71e-03
Vbe:     -4.06e-01   -5.83e-01   -5.83e-01   -6.26e-01    6.54e-01
Vbc:      5.22e+00    9.61e+00    9.61e+00    6.13e-01    0.00e+00
Vce:     -5.63e+00   -1.02e+01   -1.02e+01   -1.24e+00    6.54e-01
BetaDC:   3.24e+02    2.50e+02    2.50e+02    8.18e+01    2.81e+02
Gm:       2.05e-07    1.88e-04    1.89e-04    8.38e-02    6.48e-02
Rpi:      1.22e+09    1.33e+06    1.32e+06    1.12e+03    4.29e+03
Rx:       0.00e+00    0.00e+00    0.00e+00    1.00e-01    1.00e+00
Ro:       0.00e+00    0.00e+00    0.00e+00    4.63e+04    3.59e+04
Cbe:      0.00e+00    0.00e+00    0.00e+00    2.63e-09    8.07e-11
Cbc:      0.00e+00    0.00e+00    0.00e+00    5.91e-10    2.31e-12
Cjs:      0.00e+00    0.00e+00    0.00e+00    0.00e+00    0.00e+00
BetaAC:   2.50e+02    2.50e+02    2.50e+02    9.41e+01    2.78e+02
Cbx:      0.00e+00    0.00e+00    0.00e+00    0.00e+00    1.42e-12
Ft:       0.00e+00    0.00e+00    0.00e+00    4.15e+06    1.22e+08

Name:       q6          q7          q8          q4          q3
Model:    bc547b      bc547b      bc547b      bc547b      bc547b
Ib:       6.10e-06   -1.57e-11    9.50e-08    2.80e-06    2.84e-06
Ic:       1.71e-03    1.07e-11    2.65e-05    8.50e-04    8.56e-04
Vbe:      6.54e-01   -5.00e+00    5.44e-01    6.33e-01    6.33e-01
Vbc:      9.66e-02   -1.06e+01   -6.99e-02   -4.46e+00   -4.14e+00
Vce:      5.57e-01    5.65e+00    6.13e-01    5.10e+00    4.77e+00
BetaDC:   2.81e+02   -6.82e-01    2.79e+02    3.03e+02    3.02e+02
Gm:       6.47e-02    7.70e-96    1.02e-03    3.24e-02    3.26e-02
Rpi:      4.29e+03    1.00e+12    2.77e+05    9.33e+03    9.22e+03
Rx:       1.00e+00    1.00e+00    1.00e+00    1.00e+00    1.00e+00
Ro:       3.59e+04    0.00e+00    2.33e+06    7.78e+04    7.69e+04
Cbe:      8.07e-11    6.68e-12    2.50e-11    5.71e-11    5.73e-11
Cbc:      2.51e-12    8.66e-13    2.20e-12    1.10e-12    1.13e-12
Cjs:      0.00e+00    0.00e+00    0.00e+00    0.00e+00    0.00e+00
BetaAC:   2.77e+02    7.70e-84    2.82e+02    3.02e+02    3.00e+02
Cbx:      1.54e-12    5.32e-13    1.35e-12    6.78e-13    6.92e-13
Ft:       1.22e+08    1.97e-02    5.66e+06    8.75e+07    8.77e+07

Name:       q2          q1
Model:    bc557b      bc557b
Ib:      -2.68e-06   -2.63e-06
Ic:      -8.50e-04   -8.51e-04
Vbe:     -6.23e-01   -6.22e-01
Vbc:     -3.27e-01    0.00e+00
Vce:     -2.95e-01   -6.22e-01
BetaDC:   3.18e+02    3.24e+02
Gm:       3.22e-02    3.22e-02
Rpi:      9.87e+03    1.00e+04
Rx:       1.00e+00    1.00e+00
Ro:       2.37e+04    2.43e+04
Cbe:      5.02e-11    5.02e-11
Cbc:      6.47e-11    6.80e-12
Cjs:      0.00e+00    0.00e+00
BetaAC:   3.18e+02    3.23e+02
Cbx:      3.82e-11    4.02e-12
Ft:       3.34e+07    8.41e+07

                        --- VDMOSFET Transistors ---
Name:          m1
Model:       2n7002
Id:          1.18e-03
Vgs:         5.00e+00
Vds:         2.53e-03
Vth:         1.60e+00
Gm:          3.49e-04
Gds:         7.22e-01
Cgs:         5.00e-11
Cgd:         8.00e-11
Cbody:       4.99e-11



Date: Thu Sep 26 23:15:22 2024
Total elapsed time: 1.354 seconds.

tnom = 27
temp = 27
method = trap
totiter = 1684
traniter = 0
tranpoints = 0
accept = 0
rejected = 0
matrix size = 168
fillins = 942
solver = Normal

