Circuit: * C:\Users\---\Desktop\DCE\dce-g5-proyecto_integrador\Checkpoint 2\Simulación.asc

Early termination of direct N-R iteration.
Direct Newton iteration failed to find .op point.  (Use ".option noopiter" to skip.)
Starting Gmin stepping
Gmin = 10
vernier = 0.5
vernier = 0.25
vernier = 0.125
vernier = 0.0625
Gmin = 8.61953
vernier = 0.03125
vernier = 0.015625
vernier = 0.0078125
vernier = 0.00390625
Gmin = 8.47038
vernier = 0.00195313
vernier = 0.000976563
vernier = 0.000488281
Gmin = 0
Gmin stepping failed

Starting source stepping with srcstepmethod=0
Source Step = 3.0303%
Source Step = 33.3333%
Source Step = 39.4028%
Source Step = 39.4324%
Source Step = 39.462%
Source Step = 39.4916%
Source Step = 39.5212%
vernier = 0.00146484
Source Step = 39.5523%
Source Step = 39.5967%
Source Step = 39.641%
Source Step = 39.6854%
Source Step = 39.7298%
Source Step = 39.7742%
vernier = 0.00219727
Source Step = 39.8408%
Source Step = 39.9074%
Source Step = 39.974%
Source Step = 40.0405%
Source Step = 40.1071%
vernier = 0.0032959
Source Step = 40.2037%
Source Step = 40.3035%
Source Step = 40.4034%
Source Step = 40.5033%
Source Step = 40.6032%
vernier = 0.00494385
Source Step = 40.743%
Source Step = 40.8928%
Source Step = 41.0426%
Source Step = 41.1924%
Source Step = 41.3423%
vernier = 0.00741577
Source Step = 41.5445%
Source Step = 41.7692%
Source Step = 41.9939%
Source Step = 42.2187%
Source Step = 42.4434%
vernier = 0.0111237
Source Step = 42.7355%
Source Step = 43.0726%
Source Step = 43.4097%
Source Step = 43.7468%
Source Step = 44.0838%
vernier = 0.0166855
Source Step = 44.5052%
Source Step = 45.0108%
Source Step = 45.5164%
Source Step = 46.0221%
Source Step = 46.5277%
vernier = 0.0250282
Source Step = 47.1344%
Source Step = 47.8929%
Source Step = 48.6513%
Source Step = 49.4097%
Source Step = 50.1681%
vernier = 0.0375423
Source Step = 51.0403%
Source Step = 52.178%
Source Step = 53.3156%
Source Step = 54.4533%
Source Step = 55.5909%
vernier = 0.0563135
Source Step = 56.8423%
Source Step = 58.5488%
Source Step = 60.2553%
Source Step = 61.9618%
Source Step = 63.6682%
vernier = 0.0844703
Source Step = 65.46%
Source Step = 68.0197%
Source Step = 70.5794%
Source Step = 73.1391%
Source Step = 75.6988%
Source Step = 78.2585%
vernier = 0.126705
Source Step = 82.0981%
Source Step = 85.9377%
Source Step = 89.7772%
Source Step = 93.6168%
Source Step = 97.4563%
vernier = 0.190058
Source stepping succeeded in finding the operating point.

Semiconductor Device Operating Points:
                        --- Diodes ---
Name:    d:u1b:p    d:u1b:ln    d:u1b:lp     d:u1b:e     d:u1b:c
Model:   u1b:dx      u1b:dx      u1b:dx      u1b:dx      u1b:dx
Id:     -1.00e-11   -4.00e-11   -4.00e-11   -4.45e-12   -2.86e-12
Vd:     -1.00e+01   -4.00e+01   -4.00e+01   -4.45e+00   -2.85e+00
Req:     1.00e+12    1.00e+12    1.00e+12    1.00e+12    1.00e+12
CAP:     0.00e+00    0.00e+00    0.00e+00    0.00e+00    0.00e+00

Name:    d:u1a:p    d:u1a:ln    d:u1a:lp     d:u1a:e     d:u1a:c
Model:   u1a:dx      u1a:dx      u1a:dx      u1a:dx      u1a:dx
Id:     -1.00e-11   -4.01e-11   -3.99e-11   -4.58e-12   -2.72e-12
Vd:     -1.00e+01   -4.01e+01   -3.99e+01   -4.58e+00   -2.72e+00
Req:     1.00e+12    1.00e+12    1.00e+12    1.00e+12    1.00e+12
CAP:     0.00e+00    0.00e+00    0.00e+00    0.00e+00    0.00e+00

Name:    d:u2b:p    d:u2b:ln    d:u2b:lp     d:u2b:e     d:u2b:c
Model:   u2b:dx      u2b:dx      u2b:dx      u2b:dx      u2b:dx
Id:     -1.00e-11   -4.00e-11   -4.00e-11   -5.23e-12   -2.07e-12
Vd:     -1.00e+01   -4.00e+01   -4.00e+01   -5.23e+00   -2.07e+00
Req:     1.00e+12    1.00e+12    1.00e+12    1.00e+12    1.00e+12
CAP:     0.00e+00    0.00e+00    0.00e+00    0.00e+00    0.00e+00

Name:    d:u2a:p    d:u2a:ln    d:u2a:lp     d:u2a:e     d:u2a:c
Model:   u2a:dx      u2a:dx      u2a:dx      u2a:dx      u2a:dx
Id:     -1.00e-11   -3.98e-11   -4.02e-11   -4.16e-12   -3.14e-12
Vd:     -1.00e+01   -3.98e+01   -4.02e+01   -4.16e+00   -3.14e+00
Req:     1.00e+12    1.00e+12    1.00e+12    1.00e+12    1.00e+12
CAP:     0.00e+00    0.00e+00    0.00e+00    0.00e+00    0.00e+00

                        --- Bipolar Transistors ---
Name:     q:u1b:2     q:u1b:1     q:u1a:2     q:u1a:1     q:u2b:2
Model:    u1b:qx      u1b:qx      u1a:qx      u1a:qx      u2b:qx
Ib:      -1.99e-08   -1.99e-08   -1.99e-08   -1.99e-08   -1.99e-08
Ic:      -4.98e-06   -4.99e-06   -4.98e-06   -4.98e-06   -4.98e-06
Vbe:     -5.83e-01   -5.83e-01   -5.83e-01   -5.83e-01   -5.83e-01
Vbc:      5.01e+00    5.01e+00    5.14e+00    5.14e+00    4.96e+00
Vce:     -5.59e+00   -5.59e+00   -5.73e+00   -5.73e+00   -5.54e+00
BetaDC:   2.50e+02    2.50e+02    2.50e+02    2.50e+02    2.50e+02
Gm:       1.93e-04    1.93e-04    1.92e-04    1.93e-04    1.93e-04
Rpi:      1.30e+06    1.30e+06    1.30e+06    1.30e+06    1.30e+06
Rx:       0.00e+00    0.00e+00    0.00e+00    0.00e+00    0.00e+00
Ro:       3.61e+97    3.60e+97    0.00e+00    0.00e+00    6.28e+96
Cbe:      0.00e+00    0.00e+00    0.00e+00    0.00e+00    0.00e+00
Cbc:      0.00e+00    0.00e+00    0.00e+00    0.00e+00    0.00e+00
Cjs:      0.00e+00    0.00e+00    0.00e+00    0.00e+00    0.00e+00
BetaAC:   2.50e+02    2.50e+02    2.50e+02    2.50e+02    2.50e+02
Cbx:      0.00e+00    0.00e+00    0.00e+00    0.00e+00    0.00e+00
Ft:       0.00e+00    0.00e+00    0.00e+00    0.00e+00    0.00e+00

Name:     q:u2b:1     q:u2a:2     q:u2a:1       q9          q5
Model:    u2b:qx      u2a:qx      u2a:qx      tip42c      bc547b
Ib:      -1.99e-08   -1.99e-08   -1.99e-08   -2.18e-03    6.10e-06
Ic:      -4.99e-06   -4.98e-06   -4.98e-06   -2.37e-01    1.71e-03
Vbe:     -5.83e-01   -5.83e-01   -5.83e-01   -7.50e-01    6.54e-01
Vbc:      4.96e+00    5.18e+00    5.18e+00    5.34e+00    0.00e+00
Vce:     -5.54e+00   -5.76e+00   -5.76e+00   -6.09e+00    6.54e-01
BetaDC:   2.50e+02    2.50e+02    2.50e+02    1.09e+02    2.81e+02
Gm:       1.93e-04    1.92e-04    1.93e-04    8.01e+00    6.48e-02
Rpi:      1.30e+06    1.30e+06    1.30e+06    1.24e+01    4.29e+03
Rx:       0.00e+00    0.00e+00    0.00e+00    1.00e-01    1.00e+00
Ro:       6.26e+96    0.00e+00    0.00e+00    4.44e+02    3.59e+04
Cbe:      0.00e+00    0.00e+00    0.00e+00    1.87e-07    8.07e-11
Cbc:      0.00e+00    0.00e+00    0.00e+00    2.25e-10    2.31e-12
Cjs:      0.00e+00    0.00e+00    0.00e+00    0.00e+00    0.00e+00
BetaAC:   2.50e+02    2.50e+02    2.50e+02    9.92e+01    2.78e+02
Cbx:      0.00e+00    0.00e+00    0.00e+00    0.00e+00    1.42e-12
Ft:       0.00e+00    0.00e+00    0.00e+00    6.82e+06    1.22e+08

Name:       q6          q7          q8          q4          q3
Model:    bc547b      bc547b      bc547b      bc547b      bc547b
Ib:       6.10e-06    6.03e-06    7.22e-06   -1.34e-12    5.72e-06
Ic:       1.71e-03    1.70e-03    2.18e-03    8.93e-13    1.71e-03
Vbe:      6.54e-01    6.53e-01    6.58e-01   -4.44e-01    6.52e-01
Vbc:      1.15e-01   -9.78e-02   -4.68e+00   -8.27e-01   -3.72e+00
Vce:      5.38e-01    7.51e-01    5.34e+00    3.83e-01    4.37e+00
BetaDC:   2.81e+02    2.82e+02    3.02e+02   -6.66e-01    2.98e+02
Gm:       6.47e-02    6.42e-02    8.23e-02    3.84e-20    6.45e-02
Rpi:      4.29e+03    4.33e+03    3.62e+03    1.00e+12    4.57e+03
Rx:       1.00e+00    1.00e+00    1.00e+00    1.00e+00    1.00e+00
Ro:       3.59e+04    3.63e+04    3.04e+04    6.49e+22    3.83e+04
Cbe:      8.07e-11    8.03e-11    9.04e-11    1.14e-11    7.98e-11
Cbc:      2.56e-12    2.17e-12    1.09e-12    1.66e-12    1.16e-12
Cjs:      0.00e+00    0.00e+00    0.00e+00    0.00e+00    0.00e+00
BetaAC:   2.77e+02    2.78e+02    2.98e+02    3.84e-08    2.95e+02
Cbx:      1.57e-12    1.33e-12    6.70e-13    1.02e-12    7.12e-13
Ft:       1.21e+08    1.22e+08    1.42e+08    1.13e-02    1.26e+08

Name:       q2          q1
Model:    bc557b      bc557b
Ib:      -4.43e-06   -5.26e-06
Ic:      -1.71e-03   -1.70e-03
Vbe:     -6.37e-01   -6.41e-01
Vbc:      3.99e+00    0.00e+00
Vce:     -4.62e+00   -6.41e-01
BetaDC:   3.85e+02    3.22e+02
Gm:       6.42e-02    6.36e-02
Rpi:      5.94e+03    5.00e+03
Rx:       1.00e+00    1.00e+00
Ro:       1.45e+04    1.22e+04
Cbe:      6.91e-11    6.91e-11
Cbc:      1.82e-12    6.81e-12
Cjs:      0.00e+00    0.00e+00
BetaAC:   3.81e+02    3.17e+02
Cbx:      1.08e-12    4.02e-12
Ft:       1.42e+08    1.27e+08

                        --- VDMOSFET Transistors ---
Name:          m1
Model:       2n7002
Id:          5.24e-11
Vgs:         0.00e+00
Vds:         4.60e-02
Vth:         1.60e+00
Gm:          2.15e-16
Gds:         0.00e+00
Cgs:         5.00e-11
Cgd:         5.23e-11
Cbody:       4.89e-11



Date: Sun Nov 03 23:06:55 2024
Total elapsed time: 38.991 seconds.

tnom = 27
temp = 27
method = trap
totiter = 1677
traniter = 0
tranpoints = 0
accept = 0
rejected = 0
matrix size = 167
fillins = 994
solver = Normal

