Circuit: * C:\Users\coqui\Documents\Facultad\Circuitos II\TP\dce-g5-proyecto_integrador\Checkpoint 2\Simulación.asc

Pulso: both pins shorted together -- ignoring.
Early termination of direct N-R iteration.
Direct Newton iteration failed to find .op point.  (Use ".option noopiter" to skip.)
Starting Gmin stepping
Gmin = 10
vernier = 0.5
Gmin = 1.86414
vernier = 0.25
vernier = 0.125
vernier = 0.0625
Gmin = 1.46272
vernier = 0.03125
vernier = 0.015625
Gmin = 1.36933
vernier = 0.0208333
vernier = 0.0104167
vernier = 0.00520833
vernier = 0.00260417
Gmin = 1.34814
vernier = 0.00130208
vernier = 0.00173611
Gmin = 1.34362
vernier = 0.000868055
vernier = 0.000434028
Gmin = 0
Gmin stepping failed

Starting source stepping with srcstepmethod=0
Source Step = 3.0303%
Source Step = 33.3333%
Source Step = 39.4028%
Source Step = 39.4324%
Source Step = 39.462%
Source Step = 39.4916%
Source Step = 39.5212%
vernier = 0.00146484
Source Step = 39.5537%
Source Step = 39.5981%
Source Step = 39.6425%
Source Step = 39.6869%
Source Step = 39.7313%
vernier = 0.00219727
Source Step = 39.7779%
Source Step = 39.8445%
Source Step = 39.9111%
Source Step = 39.9777%
Source Step = 40.0442%
Source Step = 40.1108%
vernier = 0.0032959
Source Step = 40.2107%
Source Step = 40.3106%
Source Step = 40.4105%
Source Step = 40.5103%
Source Step = 40.6102%
vernier = 0.00494385
Source Step = 40.755%
Source Step = 40.9048%
Source Step = 41.0547%
Source Step = 41.2045%
Source Step = 41.3543%
vernier = 0.00741577
Source Step = 41.564%
Source Step = 41.7887%
Source Step = 42.0135%
Source Step = 42.2382%
Source Step = 42.4629%
vernier = 0.0111237
Source Step = 42.7663%
Source Step = 43.1034%
Source Step = 43.4404%
Source Step = 43.7775%
Source Step = 44.1146%
vernier = 0.0166855
Source Step = 44.5528%
Source Step = 45.0584%
Source Step = 45.564%
Source Step = 46.0697%
Source Step = 46.5753%
vernier = 0.0250282
Source Step = 47.2073%
Source Step = 47.9657%
Source Step = 48.7242%
Source Step = 49.4826%
Source Step = 50.241%
vernier = 0.0375423
Source Step = 51.1511%
Source Step = 52.2888%
Source Step = 53.4264%
Source Step = 54.5641%
Source Step = 55.7017%
vernier = 0.0563135
Source Step = 57.01%
Source Step = 58.7165%
Source Step = 60.423%
Source Step = 62.1294%
Source Step = 63.8359%
vernier = 0.0844703
Source Step = 65.713%
Source Step = 68.2727%
Source Step = 70.8324%
Source Step = 73.3921%
Source Step = 75.9518%
vernier = 0.126705
Source Step = 78.6395%
Source Step = 82.4791%
Source Step = 86.3187%
Source Step = 90.1582%
Source Step = 93.9978%
Source Step = 97.8373%
vernier = 0.190058
Source stepping succeeded in finding the operating point.

Semiconductor Device Operating Points:
                        --- Diodes ---
Name:    d:u1b:p    d:u1b:ln    d:u1b:lp     d:u1b:e     d:u1b:c
Model:   u1b:dx      u1b:dx      u1b:dx      u1b:dx      u1b:dx
Id:     -1.00e-11   -4.00e-11   -4.00e-11   -4.40e-12   -2.90e-12
Vd:     -1.00e+01   -4.00e+01   -4.00e+01   -4.40e+00   -2.90e+00
Req:     1.00e+12    1.00e+12    1.00e+12    1.00e+12    1.00e+12
CAP:     0.00e+00    0.00e+00    0.00e+00    0.00e+00    0.00e+00

Name:    d:u1a:p    d:u1a:ln    d:u1a:lp     d:u1a:e     d:u1a:c
Model:   u1a:dx      u1a:dx      u1a:dx      u1a:dx      u1a:dx
Id:     -1.00e-11   -4.01e-11   -3.99e-11   -4.58e-12   -2.72e-12
Vd:     -1.00e+01   -4.01e+01   -3.99e+01   -4.58e+00   -2.72e+00
Req:     1.00e+12    1.00e+12    1.00e+12    1.00e+12    1.00e+12
CAP:     0.00e+00    0.00e+00    0.00e+00    0.00e+00    0.00e+00

Name:    d:u2b:p    d:u2b:ln    d:u2b:lp     d:u2b:e     d:u2b:c
Model:   u2b:dx      u2b:dx      u2b:dx      u2b:dx      u2b:dx
Id:     -1.00e-11   -4.00e-11   -4.00e-11   -5.23e-12   -2.07e-12
Vd:     -1.00e+01   -4.00e+01   -4.00e+01   -5.23e+00   -2.07e+00
Req:     1.00e+12    1.00e+12    1.00e+12    1.00e+12    1.00e+12
CAP:     0.00e+00    0.00e+00    0.00e+00    0.00e+00    0.00e+00

Name:    d:u2a:p    d:u2a:ln    d:u2a:lp     d:u2a:e     d:u2a:c
Model:   u2a:dx      u2a:dx      u2a:dx      u2a:dx      u2a:dx
Id:     -1.00e-11   -3.98e-11   -4.02e-11   -4.20e-12   -3.10e-12
Vd:     -1.00e+01   -3.98e+01   -4.02e+01   -4.20e+00   -3.10e+00
Req:     1.00e+12    1.00e+12    1.00e+12    1.00e+12    1.00e+12
CAP:     0.00e+00    0.00e+00    0.00e+00    0.00e+00    0.00e+00

                        --- Bipolar Transistors ---
Name:     q:u1b:2     q:u1b:1     q:u1a:2     q:u1a:1     q:u2b:2
Model:    u1b:qx      u1b:qx      u1a:qx      u1a:qx      u2b:qx
Ib:      -1.99e-08   -1.99e-08   -1.99e-08   -1.99e-08   -1.99e-08
Ic:      -4.98e-06   -4.99e-06   -4.98e-06   -4.98e-06   -4.98e-06
Vbe:     -5.83e-01   -5.83e-01   -5.83e-01   -5.83e-01   -5.83e-01
Vbc:      4.96e+00    4.96e+00    5.14e+00    5.14e+00    4.96e+00
Vce:     -5.55e+00   -5.55e+00   -5.73e+00   -5.73e+00   -5.54e+00
BetaDC:   2.50e+02    2.50e+02    2.50e+02    2.50e+02    2.50e+02
Gm:       1.93e-04    1.93e-04    1.92e-04    1.93e-04    1.93e-04
Rpi:      1.30e+06    1.30e+06    1.30e+06    1.30e+06    1.30e+06
Rx:       0.00e+00    0.00e+00    0.00e+00    0.00e+00    0.00e+00
Ro:       7.19e+96    7.17e+96    0.00e+00    0.00e+00    6.28e+96
Cbe:      0.00e+00    0.00e+00    0.00e+00    0.00e+00    0.00e+00
Cbc:      0.00e+00    0.00e+00    0.00e+00    0.00e+00    0.00e+00
Cjs:      0.00e+00    0.00e+00    0.00e+00    0.00e+00    0.00e+00
BetaAC:   2.50e+02    2.50e+02    2.50e+02    2.50e+02    2.50e+02
Cbx:      0.00e+00    0.00e+00    0.00e+00    0.00e+00    0.00e+00
Ft:       0.00e+00    0.00e+00    0.00e+00    0.00e+00    0.00e+00

Name:     q:u2b:1     q:u2a:2     q:u2a:1       q9          q5
Model:    u2b:qx      u2a:qx      u2a:qx      tip42c      bc547b
Ib:      -1.99e-08   -1.99e-08   -1.99e-08   -1.78e-03    6.10e-06
Ic:      -4.99e-06   -4.98e-06   -4.99e-06   -1.98e-01    1.71e-03
Vbe:     -5.83e-01   -5.83e-01   -5.83e-01   -7.45e-01    6.54e-01
Vbc:      4.96e+00    4.96e+00    4.96e+00    5.59e+00    0.00e+00
Vce:     -5.54e+00   -5.54e+00   -5.54e+00   -6.33e+00    6.54e-01
BetaDC:   2.50e+02    2.50e+02    2.50e+02    1.11e+02    2.81e+02
Gm:       1.93e-04    1.93e-04    1.93e-04    6.81e+00    6.48e-02
Rpi:      1.30e+06    1.30e+06    1.30e+06    1.52e+01    4.29e+03
Rx:       0.00e+00    0.00e+00    0.00e+00    1.00e-01    1.00e+00
Ro:       6.26e+96    6.29e+96    6.27e+96    5.34e+02    3.59e+04
Cbe:      0.00e+00    0.00e+00    0.00e+00    1.59e-07    8.07e-11
Cbc:      0.00e+00    0.00e+00    0.00e+00    2.19e-10    2.31e-12
Cjs:      0.00e+00    0.00e+00    0.00e+00    0.00e+00    0.00e+00
BetaAC:   2.50e+02    2.50e+02    2.50e+02    1.03e+02    2.78e+02
Cbx:      0.00e+00    0.00e+00    0.00e+00    0.00e+00    1.42e-12
Ft:       0.00e+00    0.00e+00    0.00e+00    6.81e+06    1.22e+08

Name:       q6          q7          q8          q4          q3
Model:    bc547b      bc547b      bc547b      bc547b      bc547b
Ib:       6.10e-06    6.07e-06    5.87e-06   -1.28e-12    5.72e-06
Ic:       1.71e-03    1.70e-03    1.78e-03    7.31e-13    1.71e-03
Vbe:      6.54e-01    6.53e-01    6.53e-01   -5.41e-01    6.52e-01
Vbc:      1.05e-01    1.52e-01   -4.93e+00   -6.65e-01   -3.71e+00
Vce:      5.48e-01    5.02e-01    5.59e+00    1.24e-01    4.36e+00
BetaDC:   2.81e+02    2.80e+02    3.04e+02   -5.73e-01    2.98e+02
Gm:       6.47e-02    6.43e-02    6.74e-02    9.12e-22    6.45e-02
Rpi:      4.29e+03    4.31e+03    4.45e+03    1.00e+12    4.57e+03
Rx:       1.00e+00    1.00e+00    1.00e+00    1.00e+00    1.00e+00
Ro:       3.59e+04    3.61e+04    3.73e+04    1.34e+23    3.83e+04
Cbe:      8.07e-11    8.04e-11    8.14e-11    1.11e-11    7.98e-11
Cbc:      2.53e-12    2.66e-12    1.07e-12    1.73e-12    1.16e-12
Cjs:      0.00e+00    0.00e+00    0.00e+00    0.00e+00    0.00e+00
BetaAC:   2.77e+02    2.77e+02    3.00e+02    9.12e-10    2.95e+02
Cbx:      1.56e-12    1.64e-12    6.60e-13    1.06e-12    7.13e-13
Ft:       1.21e+08    1.21e+08    1.29e+08    1.14e-02    1.26e+08

Name:       q2          q1
Model:    bc557b      bc557b
Ib:      -4.39e-06   -5.27e-06
Ic:      -1.71e-03   -1.70e-03
Vbe:     -6.36e-01   -6.41e-01
Vbc:      4.24e+00    0.00e+00
Vce:     -4.87e+00   -6.41e-01
BetaDC:   3.89e+02    3.22e+02
Gm:       6.42e-02    6.36e-02
Rpi:      5.99e+03    4.99e+03
Rx:       1.00e+00    1.00e+00
Ro:       1.46e+04    1.22e+04
Cbe:      6.91e-11    6.91e-11
Cbc:      1.79e-12    6.81e-12
Cjs:      0.00e+00    0.00e+00
BetaAC:   3.85e+02    3.17e+02
Cbx:      1.05e-12    4.02e-12
Ft:       1.42e+08    1.27e+08

                        --- VDMOSFET Transistors ---
Name:          m1
Model:       2n7002
Id:          5.35e-11
Vgs:         0.00e+00
Vds:         3.49e-03
Vth:         1.60e+00
Gm:          2.15e-16
Gds:         0.00e+00
Cgs:         5.00e-11
Cgd:         5.35e-11
Cbody:       4.99e-11



Date: Wed Sep 25 12:51:10 2024
Total elapsed time: 37.125 seconds.

tnom = 27
temp = 27
method = trap
totiter = 1678
traniter = 0
tranpoints = 0
accept = 0
rejected = 0
matrix size = 165
fillins = 996
solver = Normal

