Circuit: * D:\Users\denis\OneDrive\Escritorio\-\Estudios\Facultad\Actuales\Taller de diseño de circuitos electrónicos\dce-g5-proyecto_integrador\Regulador_Lineal_version4.asc

Direct Newton iteration for .op point succeeded.
Semiconductor Device Operating Points:
                        --- Bipolar Transistors ---
Name:       q8          q7          q6          q4          q3
Model:    tip41c      tip41c      tip41c      tip41c      tip41c
Ib:       6.18e-05    6.19e-05    2.46e-05    3.98e-05    4.07e-05
Ic:       1.66e-03    1.65e-03    3.12e-04    7.65e-04    8.11e-04
Vbe:      4.87e-01    4.87e-01    4.38e-01    4.64e-01    4.65e-01
Vbc:     -2.49e-01    0.00e+00   -1.90e+00   -2.55e+00   -4.17e+00
Vce:      7.35e-01    4.87e-01    2.34e+00    3.02e+00    4.64e+00
BetaDC:   2.68e+01    2.67e+01    1.27e+01    1.92e+01    1.99e+01
Gm:       5.74e-02    5.73e-02    1.08e-02    2.66e-02    2.82e-02
Rpi:      8.30e+02    8.30e+02    2.19e+03    1.32e+03    1.29e+03
Rx:       4.55e+00    4.55e+00    4.56e+00    4.56e+00    4.56e+00
Ro:       6.05e+04    6.05e+04    3.26e+05    1.34e+05    1.28e+05
Cbe:      2.58e-09    2.62e-09    5.65e-10    1.03e-09    1.02e-09
Cbc:      8.23e-11    8.81e-11    6.56e-11    6.23e-11    5.68e-11
Cjs:      0.00e+00    0.00e+00    0.00e+00    0.00e+00    0.00e+00
BetaAC:   4.76e+01    4.75e+01    2.37e+01    3.52e+01    3.64e+01
Cbx:      2.02e-11    2.16e-11    1.61e-11    1.53e-11    1.39e-11
Ft:       3.40e+06    3.34e+06    2.66e+06    3.83e+06    4.09e+06

Name:       q5          q2          q1
Model:    tip42c      tip42c      tip42c
Ib:      -3.12e-04   -1.11e-05   -1.12e-05
Ic:      -3.35e-02   -7.90e-04   -7.89e-04
Vbe:     -6.97e-01   -6.00e-01   -6.00e-01
Vbc:      2.34e+00    1.62e+00    0.00e+00
Vce:     -3.04e+00   -2.22e+00   -6.00e-01
BetaDC:   1.07e+02    7.13e+01    7.03e+01
Gm:       1.27e+00    3.05e-02    3.05e-02
Rpi:      8.93e+01    2.77e+03    2.74e+03
Rx:       1.00e-01    1.00e-01    1.00e-01
Ro:       3.06e+03    1.29e+05    1.27e+05
Cbe:      3.01e-08    1.37e-09    1.37e-09
Cbc:      3.48e-10    4.13e-10    8.70e-10
Cjs:      0.00e+00    0.00e+00    0.00e+00
BetaAC:   1.13e+02    8.47e+01    8.35e+01
Cbx:      0.00e+00    0.00e+00    0.00e+00
Ft:       6.61e+06    2.72e+06    2.16e+06

                        --- VDMOSFET Transistors ---
Name:          m1
Model:       2n7002
Id:          4.51e-11
Vgs:         2.00e-01
Vds:         5.54e-01
Vth:         1.60e+00
Gm:          1.18e-14
Gds:         0.00e+00
Cgs:         5.00e-11
Cgd:         4.45e-11
Cbody:       4.01e-11



vo1rc: v(vo)=61.6565 at 100
vo2rc: v(vo)=3.08282 at 5
io1rc: i(rl)=0.616565 at 100
io2rc: i(rl)=0.0308282 at 5
regcar: (-(vo2rc-vo1rc)/(io2rc-io1rc))=-100


Date: Sat Sep 07 18:45:01 2024
Total elapsed time: 0.653 seconds.

tnom = 27
temp = 27
method = trap
totiter = 50
traniter = 0
tranpoints = 0
accept = 0
rejected = 0
matrix size = 42
fillins = 24
solver = Normal
Matrix Compiler1: 4.43 KB object code size
Matrix Compiler2:     317 opcodes
