Circuit: * D:\Users\denis\OneDrive\Escritorio\-\Estudios\Facultad\Actuales\Taller de diseño de circuitos electrónicos\dce-g5-proyecto_integrador\Regulador_Lineal_version4.asc

Direct Newton iteration for .op point succeeded.
Semiconductor Device Operating Points:
                        --- Bipolar Transistors ---
Name:       q5          q6          q4          q3          q2
Model:    bc557b      bc547c      bc547c      bc547c      bc557c
Ib:      -3.59e-02    5.78e-04    2.31e-07    2.15e-06   -1.61e-04
Ic:      -9.14e-01    3.59e-02    1.13e-04    1.04e-03   -6.91e-04
Vbe:     -1.50e+00    7.35e-01    5.62e-01    6.21e-01   -6.43e-01
Vbc:      1.05e-01    6.30e-01   -4.34e+00   -3.65e+00   -6.29e-01
Vce:     -1.60e+00    1.05e-01    4.90e+00    4.28e+00   -1.42e-02
BetaDC:   2.54e+01    6.22e+01    4.90e+02    4.84e+02    4.28e+00
Gm:       1.82e+01    1.12e+00    4.32e-03    3.96e-02    3.06e-02
Rpi:      7.26e-01    2.25e+02    1.14e+05    1.22e+04    4.54e+03
Rx:       1.00e+00    1.00e+00    1.00e+00    1.00e+00    1.00e+00
Ro:       2.20e+01    6.87e+00    5.03e+05    5.39e+04    1.64e+01
Cbe:      4.76e-08    1.79e-09    3.03e-11    5.04e-11    7.97e-11
Cbc:      7.61e-11    1.88e-11    1.15e-12    1.20e-12    1.11e-11
Cjs:      0.00e+00    0.00e+00    0.00e+00    0.00e+00    0.00e+00
BetaAC:   1.32e+01    2.53e+02    4.91e+02    4.81e+02    1.39e+02
Cbx:      4.95e-11    1.16e-11    7.05e-13    7.38e-13    6.53e-12
Ft:       6.04e+07    9.82e+07    2.14e+07    1.20e+08    5.01e+07

Name:       q1
Model:    bc557c
Ib:      -1.98e-06
Ic:      -8.79e-04
Vbe:     -6.15e-01
Vbc:      0.00e+00
Vce:     -6.15e-01
BetaDC:   4.44e+02
Gm:       3.31e-02
Rpi:      1.34e+04
Rx:       1.00e+00
Ro:       2.69e+04
Cbe:      4.91e-11
Cbc:      4.91e-12
Cjs:      0.00e+00
BetaAC:   4.42e+02
Cbx:      2.90e-12
Ft:       9.26e+07



vo1rc: v(vo)=4.99426 at 100
vo2rc: v(vo)=4.74835 at 5
io1rc: i(rl)=0.0499426 at 100
io2rc: i(rl)=0.949669 at 5
regcar: (-(vo2rc-vo1rc)/(io2rc-io1rc))=0.273322


Date: Fri Sep 06 13:00:52 2024
Total elapsed time: 1.470 seconds.

tnom = 27
temp = 27
method = trap
totiter = 10
traniter = 0
tranpoints = 0
accept = 0
rejected = 0
matrix size = 30
fillins = 22
solver = Normal
Matrix Compiler1: 3.47 KB object code size
Matrix Compiler2: 3.01 KB object code size
