Circuit: * D:\Users\denis\OneDrive\Escritorio\-\Estudios\Facultad\Actuales\Taller de diseño de circuitos electrónicos\dce-g5-proyecto_integrador\Simulacion - v.4.asc

Early termination of direct N-R iteration.
Direct Newton iteration failed to find .op point.  (Use ".option noopiter" to skip.)
Starting Gmin stepping
Gmin = 10
vernier = 0.5
vernier = 0.25
vernier = 0.125
vernier = 0.0625
Gmin = 8.61953
vernier = 0.03125
vernier = 0.015625
vernier = 0.0078125
vernier = 0.00390625
Gmin = 8.47038
vernier = 0.00195313
vernier = 0.000976563
vernier = 0.000488281
Gmin = 0
Gmin stepping failed

Starting source stepping with srcstepmethod=0
Source Step = 3.0303%
Source Step = 33.3333%
Source Step = 63.6364%
Source Step = 93.9394%
Source stepping succeeded in finding the operating point.

Semiconductor Device Operating Points:
                        --- Diodes ---
Name:    d:u4:p      d:u4:ln     d:u4:lp     d:u4:e      d:u4:c
Model:    u4:dx       u4:dx       u4:dx       u4:dx       u4:dx
Id:     -1.20e-11   -3.93e-11   -4.07e-11   -9.89e-14   -9.20e-12
Vd:     -1.20e+01   -3.93e+01   -4.07e+01   -9.82e-02   -9.20e+00
Req:     1.00e+12    1.00e+12    1.00e+12    9.99e+11    1.00e+12
CAP:     0.00e+00    0.00e+00    0.00e+00    0.00e+00    0.00e+00

Name:    d:u3:p      d:u3:ln     d:u3:lp     d:u3:e      d:u3:c
Model:    u3:dx       u3:dx       u3:dx       u3:dx       u3:dx
Id:     -1.20e-11   -3.99e-11   -4.01e-11    3.76e-09   -9.70e-12
Vd:     -1.20e+01   -3.99e+01   -4.01e+01    3.97e-01   -9.70e+00
Req:     1.00e+12    1.00e+12    1.00e+12    6.88e+06    1.00e+12
CAP:     0.00e+00    0.00e+00    0.00e+00    0.00e+00    0.00e+00

Name:    d:u2:p      d:u2:ln     d:u2:lp     d:u2:e      d:u2:c
Model:    u2:dx       u2:dx       u2:dx       u2:dx       u2:dx
Id:     -1.20e-11   -4.01e-11   -3.99e-11    1.51e-13   -9.41e-12
Vd:     -1.20e+01   -4.01e+01   -3.99e+01    1.05e-01   -9.41e+00
Req:     1.00e+12    1.00e+12    1.00e+12    3.57e+11    1.00e+12
CAP:     0.00e+00    0.00e+00    0.00e+00    0.00e+00    0.00e+00

Name:    d:u1:p      d:u1:ln     d:u1:lp     d:u1:e      d:u1:c
Model:    u1:dx       u1:dx       u1:dx       u1:dx       u1:dx
Id:     -1.20e-11   -4.70e-11   -3.30e-11   -9.90e-12    8.12e-06
Vd:     -1.20e+01   -4.70e+01   -3.30e+01   -9.90e+00    5.96e-01
Req:     1.00e+12    1.00e+12    1.00e+12    1.00e+12    3.18e+03
CAP:     0.00e+00    0.00e+00    0.00e+00    0.00e+00    0.00e+00

Name:    d:u6:p      d:u6:ln     d:u6:lp     d:u6:e      d:u6:c
Model:    u6:dx       u6:dx       u6:dx       u6:dx       u6:dx
Id:     -1.20e-11   -4.10e-11   -3.90e-11   -9.90e-12    7.98e-06
Vd:     -1.20e+01   -4.10e+01   -3.90e+01   -9.90e+00    5.96e-01
Req:     1.00e+12    1.00e+12    1.00e+12    1.00e+12    3.24e+03
CAP:     0.00e+00    0.00e+00    0.00e+00    0.00e+00    0.00e+00

                        --- Bipolar Transistors ---
Name:     q:u4:2      q:u4:1      q:u3:2      q:u3:1      q:u2:2
Model:     u4:qx       u4:qx       u3:qx       u3:qx       u2:qx
Ib:      -2.06e-08   -2.04e-08   -2.06e-08   -2.04e-08   -2.06e-08
Ic:      -5.15e-06   -5.11e-06   -5.15e-06   -5.11e-06   -5.14e-06
Vbe:     -5.84e-01   -5.84e-01   -5.84e-01   -5.84e-01   -5.84e-01
Vbc:      3.08e-01    3.08e-01    1.61e-01    1.62e-01    4.54e-01
Vce:     -8.92e-01   -8.92e-01   -7.45e-01   -7.46e-01   -1.04e+00
BetaDC:   2.50e+02    2.50e+02    2.50e+02    2.50e+02    2.50e+02
Gm:       1.99e-04    1.97e-04    1.99e-04    1.97e-04    1.99e-04
Rpi:      1.26e+06    1.27e+06    1.25e+06    1.27e+06    1.26e+06
Rx:       0.00e+00    0.00e+00    0.00e+00    0.00e+00    0.00e+00
Ro:       4.76e+18    4.89e+18    1.65e+16    1.70e+16    1.34e+21
Cbe:      0.00e+00    0.00e+00    0.00e+00    0.00e+00    0.00e+00
Cbc:      0.00e+00    0.00e+00    0.00e+00    0.00e+00    0.00e+00
Cjs:      0.00e+00    0.00e+00    0.00e+00    0.00e+00    0.00e+00
BetaAC:   2.50e+02    2.50e+02    2.50e+02    2.50e+02    2.50e+02
Cbx:      0.00e+00    0.00e+00    0.00e+00    0.00e+00    0.00e+00
Ft:       0.00e+00    0.00e+00    0.00e+00    0.00e+00    0.00e+00

Name:     q:u2:1      q:u1:2      q:u1:1      q:u6:2      q:u6:1
Model:     u2:qx       u1:qx       u1:qx       u6:qx       u6:qx
Ib:      -2.04e-08    1.69e-11   -4.08e-08   -1.92e-10   -4.03e-08
Ic:      -5.10e-06   -9.54e-12   -1.02e-05   -4.86e-08   -1.01e-05
Vbe:     -5.84e-01    7.32e+00   -6.02e-01   -4.64e-01   -6.02e-01
Vbc:      4.54e-01    9.54e+00    1.51e+00    3.13e+00    2.88e+00
Vce:     -1.04e+00   -2.22e+00   -2.11e+00   -3.59e+00   -3.48e+00
BetaDC:   2.50e+02   -5.66e-01    2.50e+02    2.53e+02    2.50e+02
Gm:       1.97e-04    0.00e+00    3.94e-04    1.88e-06    3.89e-04
Rpi:      1.27e+06    1.00e+12    6.35e+05    1.33e+08    6.42e+05
Rx:       0.00e+00    0.00e+00    0.00e+00    0.00e+00    0.00e+00
Ro:       1.37e+21    0.00e+00    6.72e+38    1.04e+66    7.82e+61
Cbe:      0.00e+00    0.00e+00    0.00e+00    0.00e+00    0.00e+00
Cbc:      0.00e+00    0.00e+00    0.00e+00    0.00e+00    0.00e+00
Cjs:      0.00e+00    0.00e+00    0.00e+00    0.00e+00    0.00e+00
BetaAC:   2.50e+02    0.00e+00    2.50e+02    2.50e+02    2.50e+02
Cbx:      0.00e+00    0.00e+00    0.00e+00    0.00e+00    0.00e+00
Ft:       0.00e+00    0.00e+00    0.00e+00    0.00e+00    0.00e+00

Name:       q6          q5          q11         q10         q7
Model:    tip41c      tip42c      bc547b      bc547b      bc547b
Ib:       8.35e-05   -2.85e-03    6.10e-06    6.10e-06    6.13e-03
Ic:       2.85e-03   -2.94e-01    1.71e-03    1.71e-03    1.56e-03
Vbe:      5.02e-01   -7.58e-01    6.54e-01    6.54e-01    7.52e-01
Vbc:     -1.96e+00    2.46e+00    0.00e+00    1.05e-01    7.38e-01
Vce:      2.46e+00   -3.22e+00    6.54e-01    5.49e-01    1.42e-02
BetaDC:   3.42e+01    1.03e+02    2.81e+02    2.81e+02    2.55e-01
Gm:       9.87e-02    9.62e+00    6.48e-02    6.47e-02    2.10e-01
Rpi:      6.01e+02    9.42e+00    4.29e+03    4.29e+03    1.39e+02
Rx:       4.55e+00    1.00e-01    1.00e+00    1.00e+00    1.00e+00
Ro:       3.57e+04    3.49e+02    3.59e+04    3.59e+04    9.18e-01
Cbe:      4.21e-09    2.24e-07    8.07e-11    8.07e-11    1.70e-09
Cbc:      6.52e-11    3.40e-10    2.31e-12    2.53e-12    4.21e-11
Cjs:      0.00e+00    0.00e+00    0.00e+00    0.00e+00    0.00e+00
BetaAC:   5.93e+01    9.07e+01    2.78e+02    2.77e+02    2.92e+01
Cbx:      1.60e-11    0.00e+00    1.42e-12    1.56e-12    2.63e-11
Ft:       3.66e+06    6.82e+06    1.22e+08    1.22e+08    1.89e+07

Name:       q4          q3          q2          q1
Model:    bc547b      bc547b      bc557b      bc557b
Ib:       8.98e-08    5.63e-06   -4.88e-06   -5.18e-06
Ic:       2.61e-05    1.68e-03   -1.67e-03   -1.67e-03
Vbe:      5.42e-01    6.51e-01   -6.39e-01   -6.41e-01
Vbc:     -2.54e+00   -3.72e+00    1.29e+00    0.00e+00
Vce:      3.08e+00    4.37e+00   -1.93e+00   -6.41e-01
BetaDC:   2.90e+02    2.98e+02    3.43e+02    3.22e+02
Gm:       9.98e-04    6.36e-02    6.28e-02    6.26e-02
Rpi:      2.94e+05    4.64e+03    5.39e+03    5.08e+03
Rx:       1.00e+00    1.00e+00    1.00e+00    1.00e+00
Ro:       2.47e+06    3.89e+04    1.31e+04    1.24e+04
Cbe:      2.49e-11    7.92e-11    6.85e-11    6.85e-11
Cbc:      1.28e-12    1.16e-12    2.68e-12    6.81e-12
Cjs:      0.00e+00    0.00e+00    0.00e+00    0.00e+00
BetaAC:   2.93e+02    2.95e+02    3.38e+02    3.18e+02
Cbx:      7.87e-13    7.12e-13    1.58e-12    4.02e-12
Ft:       5.89e+06    1.25e+08    1.37e+08    1.26e+08

                        --- VDMOSFET Transistors ---
Name:          m1
Model:       2n7002
Id:          4.39e-11
Vgs:         1.00e-01
Vds:         5.04e-01
Vth:         1.60e+00
Gm:          1.59e-15
Gds:         0.00e+00
Cgs:         5.00e-11
Cgd:         4.34e-11
Cbody:       4.08e-11



vo1rc: v(vo)=60.1707 at 100
vo2rc: v(vo)=3.00853 at 5
io1rc: i(rl)=6.01707 at 100
io2rc: i(rl)=0.300853 at 5
regcar: (-(vo2rc-vo1rc)/(io2rc-io1rc))=-10


Date: Sun Sep 08 23:29:10 2024
Total elapsed time: 2.497 seconds.

tnom = 27
temp = 27
method = trap
totiter = 1718
traniter = 0
tranpoints = 0
accept = 0
rejected = 0
matrix size = 179
fillins = 1512
solver = Normal

