Circuit: * D:\Users\denis\OneDrive\Escritorio\-\Estudios\Facultad\Actuales\Taller de diseño de circuitos electrónicos\dce-g5-proyecto_integrador\Simulacion.asc

Warning: Multiple definitions of model "bc546b" Type: BJT
WARNING: Less than two connections to node -VIN.  This node is used by V2.
Direct Newton iteration for .op point succeeded.
Semiconductor Device Operating Points:
                        --- Bipolar Transistors ---
Name:       q8          q7          q6          q4          q3
Model:    tip41c      tip41c      tip41c      tip41c      tip41c
Ib:       2.01e-04    2.01e-04    8.56e-05    2.45e-08    1.97e-04
Ic:       1.20e-02    1.20e-02    2.98e-03    1.15e-08    1.18e-02
Vbe:      5.45e-01    5.45e-01    5.03e-01    8.42e-02    5.44e-01
Vbc:     -1.11e-01    0.00e+00   -2.01e+00   -2.84e+00   -1.69e+00
Vce:      6.56e-01    5.45e-01    2.51e+00    2.93e+00    2.23e+00
BetaDC:   5.96e+01    5.96e+01    3.48e+01    4.68e-01    5.99e+01
Gm:       4.07e-01    4.06e-01    1.03e-01    5.04e-08    4.00e-01
Rpi:      2.30e+02    2.30e+02    5.85e+02    1.27e+06    2.35e+02
Rx:       4.54e+00    4.54e+00    4.55e+00    4.56e+00    4.54e+00
Ro:       8.36e+03    8.36e+03    3.42e+04    7.10e+10    8.64e+03
Cbe:      2.07e-08    2.09e-08    4.40e-09    2.06e-10    1.81e-08
Cbc:      8.52e-11    8.81e-11    6.50e-11    6.11e-11    6.69e-11
Cjs:      0.00e+00    0.00e+00    0.00e+00    0.00e+00    0.00e+00
BetaAC:   9.34e+01    9.32e+01    6.03e+01    6.39e-02    9.40e+01
Cbx:      2.09e-11    2.16e-11    1.59e-11    1.50e-11    1.64e-11
Ft:       3.11e+06    3.08e+06    3.66e+06    4.45e+02    3.50e+06

Name:       q5          q2          q1
Model:    tip42c      tip42c      tip42c
Ib:      -2.98e-03   -5.79e-03   -6.46e-05
Ic:      -3.06e-01   -8.56e-05   -5.91e-03
Vbe:     -7.59e-01   -6.98e-01   -6.52e-01
Vbc:      2.51e+00   -6.93e-01    0.00e+00
Vce:     -3.27e+00   -4.81e-03   -6.52e-01
BetaDC:   1.02e+02    1.48e-02    9.15e+01
Gm:       9.95e+00    2.08e-01    2.28e-01
Rpi:      9.01e+00    8.77e+01    4.49e+02
Rx:       1.00e-01    1.00e-01    1.00e-01
Ro:       3.35e+02    9.47e-01    1.69e+04
Cbe:      2.32e-07    2.95e-08    5.98e-09
Cbc:      3.37e-10    2.60e-07    8.71e-10
Cjs:      0.00e+00    0.00e+00    0.00e+00
BetaAC:   8.97e+01    1.83e+01    1.02e+02
Cbx:      0.00e+00    0.00e+00    0.00e+00
Ft:       6.82e+06    1.14e+05    5.29e+06



vo1rc: v(vo)=106.579 at 100
vo2rc: v(vo)=5.32894 at 5
io1rc: i(rl)=10.6579 at 100
io2rc: i(rl)=0.532894 at 5
regcar: (-(vo2rc-vo1rc)/(io2rc-io1rc))=-10


Date: Sat Sep 07 17:18:53 2024
Total elapsed time: 0.078 seconds.

tnom = 27
temp = 27
method = trap
totiter = 21
traniter = 0
tranpoints = 0
accept = 0
rejected = 0
matrix size = 36
fillins = 24
solver = Normal
Matrix Compiler1: 4.08 KB object code size
Matrix Compiler2: 3.58 KB object code size
