Circuit: * D:\Users\denis\OneDrive\Escritorio\-\Estudios\Facultad\Actuales\Taller de diseño de circuitos electrónicos\dce-g5-proyecto_integrador\Simulacion.asc

Warning: Multiple definitions of model "bc546b" Type: BJT
Direct Newton iteration failed to find .op point.  (Use ".option noopiter" to skip.)
Starting Gmin stepping
Gmin = 10
Gmin = 1.07374
Gmin = 0.115292
Gmin = 0.0123794
Gmin = 0.00132923
Gmin = 0.000142725
Gmin = 1.5325e-005
Gmin = 1.6455e-006
Gmin = 1.76685e-007
Gmin = 1.89714e-008
Gmin = 2.03704e-009
Gmin = 2.18725e-010
Gmin = 2.34854e-011
Gmin = 2.52173e-012
Gmin = 2.70769e-013
Gmin = 0
Gmin stepping succeeded in finding the operating point.

Semiconductor Device Operating Points:
                        --- Bipolar Transistors ---
Name:        q6            q4            q3           q5          q2
Model:  bd139_cordell bd139_cordell bd139_cordell    bd140       bd140
Ib:        4.92e-05      9.47e-06      9.74e-06    -3.85e-03   -3.57e-06
Ic:        3.85e-03      5.90e-04      6.44e-04    -4.99e-01   -6.39e-04
Vbe:       6.21e-01      5.72e-01      5.73e-01    -8.00e-01   -5.57e-01
Vbc:      -5.56e+00     -4.44e+00     -9.94e+00     6.18e+00    5.50e+00
Vce:       6.18e+00      5.01e+00      1.05e+01    -6.98e+00   -6.06e+00
BetaDC:    7.83e+01      6.23e+01      6.62e+01     1.30e+02    1.79e+02
Gm:        1.48e-01      2.27e-02      2.48e-02     1.45e+01    2.46e-02
Rpi:       5.94e+02      3.12e+03      3.04e+03     6.74e+00    7.46e+03
Rx:        4.98e+00      5.00e+00      5.00e+00     1.34e+00    1.98e+00
Ro:        2.50e+04      1.62e+05      1.57e+05     2.63e+02    2.09e+05
Cbe:       5.59e-10      4.68e-10      4.69e-10     3.94e-10    3.41e-10
Cbc:       9.95e-12      1.08e-11      8.06e-12     1.44e-11    1.50e-11
Cjs:       0.00e+00      0.00e+00      0.00e+00     0.00e+00    0.00e+00
BetaAC:    8.78e+01      7.10e+01      7.53e+01     9.79e+01    1.84e+02
Cbx:       8.83e-12      9.56e-12      7.14e-12     1.28e-11    1.34e-11
Ft:        4.08e+07      7.41e+06      8.15e+06     5.50e+09    1.06e+07

Name:       q1
Model:     bd140
Ib:      -3.70e-06
Ic:      -6.37e-04
Vbe:     -5.58e-01
Vbc:      0.00e+00
Vce:     -5.58e-01
BetaDC:   1.72e+02
Gm:       2.45e-02
Rpi:      7.19e+03
Rx:       1.98e+00
Ro:       2.01e+05
Cbe:      3.41e-10
Cbc:      3.61e-11
Cjs:      0.00e+00
BetaAC:   1.76e+02
Cbx:      3.22e-11
Ft:       9.54e+06



vo1rc: v(vo)=45.0442 at 100
vo2rc: v(vo)=2.25221 at 5
io1rc: i(rl)=4.50442 at 100
io2rc: i(rl)=0.225221 at 5
regcar: (-(vo2rc-vo1rc)/(io2rc-io1rc))=-10


Date: Fri Sep 06 21:33:55 2024
Total elapsed time: 0.085 seconds.

tnom = 27
temp = 27
method = trap
totiter = 493
traniter = 0
tranpoints = 0
accept = 0
rejected = 0
matrix size = 30
fillins = 22
solver = Normal
Matrix Compiler1: 3.47 KB object code size
Matrix Compiler2: off  [0.8]/1.0/0.9

