Circuit: * D:\Users\denis\OneDrive\Escritorio\-\Estudios\Facultad\Actuales\Taller de diseño de circuitos electrónicos\dce-g5-proyecto_integrador\Simulacion.asc

Warning: Multiple definitions of model "bc546b" Type: BJT
Direct Newton iteration for .op point succeeded.
Semiconductor Device Operating Points:
                        --- Bipolar Transistors ---
Name:        q6            q4            q3           q5          q2
Model:  bd139_cordell bd139_cordell bd139_cordell    bd140       bd140
Ib:        1.17e-04      8.96e-06      1.02e-05    -1.01e-02   -3.75e-06
Ic:        1.01e-02      5.55e-04      6.77e-04    -9.92e-01   -6.72e-04
Vbe:       6.47e-01      5.71e-01      5.75e-01    -8.86e-01   -5.58e-01
Vbc:      -5.46e+00     -4.46e+00     -9.92e+00     6.11e+00    5.47e+00
Vce:       6.11e+00      5.03e+00      1.05e+01    -7.00e+00   -6.03e+00
BetaDC:    8.65e+01      6.19e+01      6.66e+01     9.81e+01    1.79e+02
Gm:        3.86e-01      2.14e-02      2.61e-02     2.57e+01    2.59e-02
Rpi:       2.48e+02      3.30e+03      2.91e+03     2.56e+00    7.11e+03
Rx:        4.95e+00      5.00e+00      5.00e+00     1.03e+00    1.98e+00
Ro:        9.48e+03      1.73e+05      1.50e+05     1.32e+02    1.99e+05
Cbe:       7.09e-10      4.66e-10      4.70e-10     4.01e-10    3.41e-10
Cbc:       1.00e-11      1.08e-11      8.06e-12     1.45e-11    1.50e-11
Cjs:       0.00e+00      0.00e+00      0.00e+00     0.00e+00    0.00e+00
BetaAC:    9.58e+01      7.05e+01      7.58e+01     6.58e+01    1.84e+02
Cbx:       8.88e-12      9.54e-12      7.15e-12     1.29e-11    1.34e-11
Ft:        8.45e+07      6.98e+06      8.54e+06     9.54e+09    1.11e+07

Name:       q1
Model:     bd140
Ib:      -3.89e-06
Ic:      -6.69e-04
Vbe:     -5.59e-01
Vbc:      0.00e+00
Vce:     -5.59e-01
BetaDC:   1.72e+02
Gm:       2.58e-02
Rpi:      6.84e+03
Rx:       1.98e+00
Ro:       1.91e+05
Cbe:      3.41e-10
Cbc:      3.61e-11
Cjs:      0.00e+00
BetaAC:   1.76e+02
Cbx:      3.22e-11
Ft:       1.00e+07



vo1rc: v(vo)=5.02738 at 100
vo2rc: v(vo)=5.00472 at 5
io1rc: i(rl)=0.0502738 at 100
io2rc: i(rl)=1.00094 at 5
regcar: (-(vo2rc-vo1rc)/(io2rc-io1rc))=0.0238366


Date: Fri Sep 06 17:35:23 2024
Total elapsed time: 1.924 seconds.

tnom = 27
temp = 27
method = trap
totiter = 10
traniter = 0
tranpoints = 0
accept = 0
rejected = 0
matrix size = 30
fillins = 22
solver = Normal
Matrix Compiler1: 3.47 KB object code size
Matrix Compiler2: 3.01 KB object code size
