Freq.	V(vf)
Step Information: Rl=4.5  (Run: 1/3)
1.00000000000000e+000	(5.15371390545591e+001dB,1.79981608053819e+002°)
1.00230523807790e+000	(5.15371390502212e+001dB,1.79981518952377e+002°)
1.00461579027840e+000	(5.15371390458578e+001dB,1.79981429752951e+002°)
1.00693166885180e+000	(5.15371390412094e+001dB,1.79981340455069e+002°)
1.00925288607668e+000	(5.15371390367942e+001dB,1.79981251058254e+002°)
1.01157945425990e+000	(5.15371390323529e+001dB,1.79981161562035e+002°)
1.01391138573668e+000	(5.15371390278854e+001dB,1.79981071965936e+002°)
1.01624869287070e+000	(5.15371390233917e+001dB,1.79980982269483e+002°)
1.01859138805412e+000	(5.15371390186126e+001dB,1.79980892472200e+002°)
1.02093948370768e+000	(5.15371390140664e+001dB,1.79980802573611e+002°)
1.02329299228075e+000	(5.15371390094936e+001dB,1.79980712573239e+002°)
1.02565192625141e+000	(5.15371390048941e+001dB,1.79980622470607e+002°)
1.02801629812647e+000	(5.15371390002680e+001dB,1.79980532265237e+002°)
1.03038612044162e+000	(5.15371389953558e+001dB,1.79980441956652e+002°)
1.03276140576140e+000	(5.15371389906759e+001dB,1.79980351544372e+002°)
1.03514216667934e+000	(5.15371389859692e+001dB,1.79980261027918e+002°)
1.03752841581801e+000	(5.15371389812353e+001dB,1.79980170406809e+002°)
1.03992016582906e+000	(5.15371389764742e+001dB,1.79980079680567e+002°)
1.04231742939330e+000	(5.15371389714267e+001dB,1.79979988848709e+002°)
1.04472021922080e+000	(5.15371389666109e+001dB,1.79979897910754e+002°)
1.04712854805090e+000	(5.15371389617676e+001dB,1.79979806866220e+002°)
1.04954242865232e+000	(5.15371389568966e+001dB,1.79979715714624e+002°)
1.05196187382322e+000	(5.15371389519982e+001dB,1.79979624455482e+002°)
1.05438689639126e+000	(5.15371389468126e+001dB,1.79979533088313e+002°)
1.05681750921366e+000	(5.15371389418582e+001dB,1.79979441612629e+002°)
1.05925372517729e+000	(5.15371389368758e+001dB,1.79979350027947e+002°)
1.06169555719872e+000	(5.15371389318655e+001dB,1.79979258333781e+002°)
1.06414301822431e+000	(5.15371389265676e+001dB,1.79979166529645e+002°)
1.06659612123026e+000	(5.15371389215007e+001dB,1.79979074615052e+002°)
1.06905487922266e+000	(5.15371389164052e+001dB,1.79978982589515e+002°)
1.07151930523761e+000	(5.15371389112812e+001dB,1.79978890452545e+002°)
1.07398941234124e+000	(5.15371389058694e+001dB,1.79978798203656e+002°)
1.07646521362983e+000	(5.15371389006880e+001dB,1.79978705842357e+002°)
1.07894672222983e+000	(5.15371388954777e+001dB,1.79978613368157e+002°)
1.08143395129794e+000	(5.15371388902384e+001dB,1.79978520780569e+002°)
1.08392691402120e+000	(5.15371388849700e+001dB,1.79978428079099e+002°)
1.08642562361706e+000	(5.15371388794133e+001dB,1.79978335263259e+002°)
1.08893009333343e+000	(5.15371388740863e+001dB,1.79978242332553e+002°)
1.09144033644876e+000	(5.15371388687300e+001dB,1.79978149286491e+002°)
1.09395636627209e+000	(5.15371388633440e+001dB,1.79978056124578e+002°)
1.09647819614318e+000	(5.15371388576691e+001dB,1.79977962846322e+002°)
1.09900583943252e+000	(5.15371388522238e+001dB,1.79977869451227e+002°)
1.10153930954141e+000	(5.15371388467487e+001dB,1.79977775938798e+002°)
1.10407861990207e+000	(5.15371388412433e+001dB,1.79977682308539e+002°)
1.10662378397766e+000	(5.15371388354488e+001dB,1.79977588559955e+002°)
1.10917481526240e+000	(5.15371388298832e+001dB,1.79977494692547e+002°)
1.11173172728159e+000	(5.15371388242871e+001dB,1.79977400705818e+002°)
1.11429453359173e+000	(5.15371388186606e+001dB,1.79977306599270e+002°)
1.11686324778056e+000	(5.15371388127444e+001dB,1.79977212372405e+002°)
1.11943788346715e+000	(5.15371388070566e+001dB,1.79977118024722e+002°)
1.12201845430196e+000	(5.15371388013379e+001dB,1.79977023555721e+002°)
1.12460497396692e+000	(5.15371387955882e+001dB,1.79976928964901e+002°)
1.12719745617551e+000	(5.15371387895483e+001dB,1.79976834251762e+002°)
1.12979591467280e+000	(5.15371387837364e+001dB,1.79976739415799e+002°)
1.13240036323556e+000	(5.15371387778932e+001dB,1.79976644456511e+002°)
1.13501081567231e+000	(5.15371387720186e+001dB,1.79976549373395e+002°)
1.13762728582343e+000	(5.15371387658531e+001dB,1.79976454165947e+002°)
1.14024978756117e+000	(5.15371387599151e+001dB,1.79976358833661e+002°)
1.14287833478977e+000	(5.15371387539453e+001dB,1.79976263376031e+002°)
1.14551294144553e+000	(5.15371387479435e+001dB,1.79976167792553e+002°)
1.14815362149688e+000	(5.15371387416505e+001dB,1.79976072082719e+002°)
1.15080038894443e+000	(5.15371387355844e+001dB,1.79975976246021e+002°)
1.15345325782109e+000	(5.15371387294859e+001dB,1.79975880281952e+002°)
1.15611224219210e+000	(5.15371387233549e+001dB,1.79975784190003e+002°)
1.15877735615512e+000	(5.15371387169324e+001dB,1.79975687969665e+002°)
1.16144861384034e+000	(5.15371387107361e+001dB,1.79975591620426e+002°)
1.16412602941049e+000	(5.15371387045071e+001dB,1.79975495141777e+002°)
1.16680961706096e+000	(5.15371386982448e+001dB,1.79975398533205e+002°)
1.16949939101987e+000	(5.15371386916905e+001dB,1.79975301794200e+002°)
1.17219536554813e+000	(5.15371386853621e+001dB,1.79975204924247e+002°)
1.17489755493953e+000	(5.15371386790001e+001dB,1.79975107922833e+002°)
1.17760597352080e+000	(5.15371386723456e+001dB,1.79975010789445e+002°)
1.18032063565173e+000	(5.15371386659166e+001dB,1.79974913523565e+002°)
1.18304155572516e+000	(5.15371386594536e+001dB,1.79974816124680e+002°)
1.18576874816716e+000	(5.15371386529568e+001dB,1.79974718592273e+002°)
1.18850222743702e+000	(5.15371386461667e+001dB,1.79974620925827e+002°)
1.19124200802737e+000	(5.15371386396016e+001dB,1.79974523124823e+002°)
1.19398810446427e+000	(5.15371386330022e+001dB,1.79974425188743e+002°)
1.19674053130724e+000	(5.15371386261089e+001dB,1.79974327117070e+002°)
1.19949930314938e+000	(5.15371386194403e+001dB,1.79974228909280e+002°)
1.20226443461741e+000	(5.15371386127369e+001dB,1.79974130564855e+002°)
1.20503594037179e+000	(5.15371386059987e+001dB,1.79974032083273e+002°)
1.20781383510678e+000	(5.15371385989663e+001dB,1.79973933464013e+002°)
1.21059813355048e+000	(5.15371385921577e+001dB,1.79973834706549e+002°)
1.21338885046497e+000	(5.15371385853135e+001dB,1.79973735810361e+002°)
1.21618600064636e+000	(5.15371385781752e+001dB,1.79973636774923e+002°)
1.21898959892486e+000	(5.15371385712602e+001dB,1.79973537599709e+002°)
1.22179966016487e+000	(5.15371385643093e+001dB,1.79973438284194e+002°)
1.22461619926504e+000	(5.15371385573225e+001dB,1.79973338827852e+002°)
1.22743923115840e+000	(5.15371385500406e+001dB,1.79973239230157e+002°)
1.23026877081238e+000	(5.15371385429814e+001dB,1.79973139490577e+002°)
1.23310483322890e+000	(5.15371385358859e+001dB,1.79973039608586e+002°)
1.23594743344451e+000	(5.15371385284948e+001dB,1.79972939583655e+002°)
1.23879658653036e+000	(5.15371385213261e+001dB,1.79972839415251e+002°)
1.24165230759241e+000	(5.15371385141207e+001dB,1.79972739102845e+002°)
1.24451461177138e+000	(5.15371385066188e+001dB,1.79972638645906e+002°)
1.24738351424294e+000	(5.15371384993393e+001dB,1.79972538043898e+002°)
1.25025903021771e+000	(5.15371384920222e+001dB,1.79972437296291e+002°)
1.25314117494141e+000	(5.15371384846678e+001dB,1.79972336402548e+002°)
1.25602996369487e+000	(5.15371384770167e+001dB,1.79972235362137e+002°)
1.25892541179416e+000	(5.15371384695868e+001dB,1.79972134174520e+002°)
1.26182753459066e+000	(5.15371384621192e+001dB,1.79972032839162e+002°)
1.26473634747115e+000	(5.15371384543542e+001dB,1.79971931355525e+002°)
1.26765186585784e+000	(5.15371384468101e+001dB,1.79971829723071e+002°)
1.27057410520854e+000	(5.15371384392277e+001dB,1.79971727941261e+002°)
1.27350308101666e+000	(5.15371384313476e+001dB,1.79971626009556e+002°)
1.27643880881134e+000	(5.15371384236878e+001dB,1.79971523927414e+002°)
1.27938130415752e+000	(5.15371384159893e+001dB,1.79971421694296e+002°)
1.28233058265602e+000	(5.15371384079926e+001dB,1.79971319309659e+002°)
1.28528665994361e+000	(5.15371384002157e+001dB,1.79971216772959e+002°)
1.28824955169313e+000	(5.15371383923994e+001dB,1.79971114083654e+002°)
1.29121927361353e+000	(5.15371383842846e+001dB,1.79971011241200e+002°)
1.29419584144998e+000	(5.15371383763890e+001dB,1.79970908245049e+002°)
1.29717927098395e+000	(5.15371383684535e+001dB,1.79970805094657e+002°)
1.30016957803328e+000	(5.15371383602191e+001dB,1.79970701789478e+002°)
1.30316677845229e+000	(5.15371383522034e+001dB,1.79970598328961e+002°)
1.30617088813183e+000	(5.15371383441473e+001dB,1.79970494712560e+002°)
1.30918192299940e+000	(5.15371383357915e+001dB,1.79970390939727e+002°)
1.31219989901920e+000	(5.15371383276545e+001dB,1.79970287009908e+002°)
1.31522483219223e+000	(5.15371383194761e+001dB,1.79970182922554e+002°)
1.31825673855640e+000	(5.15371383109979e+001dB,1.79970078677115e+002°)
1.32129563418657e+000	(5.15371383027373e+001dB,1.79969974273034e+002°)
1.32434153519466e+000	(5.15371382944355e+001dB,1.79969869709761e+002°)
1.32739445772973e+000	(5.15371382858327e+001dB,1.79969764986740e+002°)
1.33045441797808e+000	(5.15371382774473e+001dB,1.79969660103416e+002°)
1.33352143216332e+000	(5.15371382690200e+001dB,1.79969555059234e+002°)
1.33659551654643e+000	(5.15371382602916e+001dB,1.79969449853636e+002°)
1.33967668742593e+000	(5.15371382517798e+001dB,1.79969344486064e+002°)
1.34276496113786e+000	(5.15371382432255e+001dB,1.79969238955959e+002°)
1.34586035405594e+000	(5.15371382343696e+001dB,1.79969133262764e+002°)
1.34896288259164e+000	(5.15371382257298e+001dB,1.79969027405916e+002°)
1.35207256319427e+000	(5.15371382167880e+001dB,1.79968921384855e+002°)
1.35518941235103e+000	(5.15371382080619e+001dB,1.79968815199018e+002°)
1.35831344658715e+000	(5.15371381992926e+001dB,1.79968708847842e+002°)
1.36144468246594e+000	(5.15371381902204e+001dB,1.79968602330765e+002°)
1.36458313658892e+000	(5.15371381813636e+001dB,1.79968495647220e+002°)
1.36772882559584e+000	(5.15371381724630e+001dB,1.79968388796642e+002°)
1.37088176616484e+000	(5.15371381632589e+001dB,1.79968281778466e+002°)
1.37404197501251e+000	(5.15371381542695e+001dB,1.79968174592123e+002°)
1.37720946889394e+000	(5.15371381452357e+001dB,1.79968067237044e+002°)
1.38038426460288e+000	(5.15371381358980e+001dB,1.79967959712663e+002°)
1.38356637897177e+000	(5.15371381267747e+001dB,1.79967852018406e+002°)
1.38675582887188e+000	(5.15371381173469e+001dB,1.79967744153705e+002°)
1.38995263121334e+000	(5.15371381081329e+001dB,1.79967636117987e+002°)
1.39315680294529e+000	(5.15371380988736e+001dB,1.79967527910678e+002°)
1.39636836105593e+000	(5.15371380893094e+001dB,1.79967419531207e+002°)
1.39958732257261e+000	(5.15371380799585e+001dB,1.79967310978996e+002°)
1.40281370456195e+000	(5.15371380703022e+001dB,1.79967202253474e+002°)
1.40604752412990e+000	(5.15371380608590e+001dB,1.79967093354060e+002°)
1.40928879842186e+000	(5.15371380513689e+001dB,1.79966984280178e+002°)
1.41253754462274e+000	(5.15371380415732e+001dB,1.79966875031252e+002°)
1.41579377995707e+000	(5.15371380319898e+001dB,1.79966765606699e+002°)
1.41905752168908e+000	(5.15371380221001e+001dB,1.79966656005943e+002°)
1.42232878712281e+000	(5.15371380124221e+001dB,1.79966546228399e+002°)
1.42560759360218e+000	(5.15371380026967e+001dB,1.79966436273487e+002°)
1.42889395851109e+000	(5.15371379926646e+001dB,1.79966326140625e+002°)
1.43218789927353e+000	(5.15371379828435e+001dB,1.79966215829227e+002°)
1.43548943335364e+000	(5.15371379727151e+001dB,1.79966105338709e+002°)
1.43879857825583e+000	(5.15371379627975e+001dB,1.79965994668485e+002°)
1.44211535152486e+000	(5.15371379528314e+001dB,1.79965883817968e+002°)
1.44543977074592e+000	(5.15371379425576e+001dB,1.79965772786572e+002°)
1.44877185354475e+000	(5.15371379324937e+001dB,1.79965661573706e+002°)
1.45211161758773e+000	(5.15371379221215e+001dB,1.79965550178782e+002°)
1.45545908058195e+000	(5.15371379119591e+001dB,1.79965438601208e+002°)
1.45881426027534e+000	(5.15371379017471e+001dB,1.79965326840394e+002°)
1.46217717445671e+000	(5.15371378912261e+001dB,1.79965214895747e+002°)
1.46554784095590e+000	(5.15371378809140e+001dB,1.79965102766672e+002°)
1.46892627764385e+000	(5.15371378702927e+001dB,1.79964990452577e+002°)
1.47231250243271e+000	(5.15371378598801e+001dB,1.79964877952863e+002°)
1.47570653327588e+000	(5.15371378491573e+001dB,1.79964765266938e+002°)
1.47910838816819e+000	(5.15371378386430e+001dB,1.79964652394201e+002°)
1.48251808514594e+000	(5.15371378280777e+001dB,1.79964539334055e+002°)
1.48593564228699e+000	(5.15371378172016e+001dB,1.79964426085901e+002°)
1.48936107771090e+000	(5.15371378065331e+001dB,1.79964312649137e+002°)
1.49279440957898e+000	(5.15371377955534e+001dB,1.79964199023164e+002°)
1.49623565609442e+000	(5.15371377847811e+001dB,1.79964085207377e+002°)
1.49968483550236e+000	(5.15371377736973e+001dB,1.79963971201174e+002°)
1.50314196609001e+000	(5.15371377628200e+001dB,1.79963857003950e+002°)
1.50660706618673e+000	(5.15371377516309e+001dB,1.79963742615101e+002°)
1.51008015416413e+000	(5.15371377406479e+001dB,1.79963628034017e+002°)
1.51356124843619e+000	(5.15371377296117e+001dB,1.79963513260094e+002°)
1.51705036745932e+000	(5.15371377182630e+001dB,1.79963398292723e+002°)
1.52054752973248e+000	(5.15371377071196e+001dB,1.79963283131293e+002°)
1.52405275379728e+000	(5.15371376956632e+001dB,1.79963167775195e+002°)
1.52756605823806e+000	(5.15371376844119e+001dB,1.79963052223815e+002°)
1.53108746168202e+000	(5.15371376728469e+001dB,1.79962936476543e+002°)
1.53461698279928e+000	(5.15371376614865e+001dB,1.79962820532764e+002°)
1.53815464030302e+000	(5.15371376498120e+001dB,1.79962704391864e+002°)
1.54170045294954e+000	(5.15371376383414e+001dB,1.79962588053226e+002°)
1.54525443953840e+000	(5.15371376265566e+001dB,1.79962471516235e+002°)
1.54881661891247e+000	(5.15371376149752e+001dB,1.79962354780270e+002°)
1.55238700995807e+000	(5.15371376030788e+001dB,1.79962237844717e+002°)
1.55596563160506e+000	(5.15371375913855e+001dB,1.79962120708951e+002°)
1.55955250282694e+000	(5.15371375793765e+001dB,1.79962003372354e+002°)
1.56314764264094e+000	(5.15371375675703e+001dB,1.79961885834303e+002°)
1.56675107010813e+000	(5.15371375557070e+001dB,1.79961768094174e+002°)
1.57036280433354e+000	(5.15371375435276e+001dB,1.79961650151345e+002°)
1.57398286446620e+000	(5.15371375315499e+001dB,1.79961532005188e+002°)
1.57761126969933e+000	(5.15371375192556e+001dB,1.79961413655079e+002°)
1.58124803927037e+000	(5.15371375071625e+001dB,1.79961295100389e+002°)
1.58489319246110e+000	(5.15371374947522e+001dB,1.79961176340490e+002°)
1.58854674859776e+000	(5.15371374825425e+001dB,1.79961057374752e+002°)
1.59220872705115e+000	(5.15371374700152e+001dB,1.79960938202545e+002°)
1.59587914723672e+000	(5.15371374576880e+001dB,1.79960818823236e+002°)
1.59955802861465e+000	(5.15371374450425e+001dB,1.79960699236193e+002°)
1.60324539069002e+000	(5.15371374325970e+001dB,1.79960579440781e+002°)
1.60694125301286e+000	(5.15371374198324e+001dB,1.79960459436367e+002°)
1.61064563517825e+000	(5.15371374072670e+001dB,1.79960339222312e+002°)
1.61435855682647e+000	(5.15371373943824e+001dB,1.79960218797981e+002°)
1.61808003764305e+000	(5.15371373814372e+001dB,1.79960098162735e+002°)
1.62181009735891e+000	(5.15371373686904e+001dB,1.79959977315932e+002°)
1.62554875575047e+000	(5.15371373556233e+001dB,1.79959856256934e+002°)
1.62929603263970e+000	(5.15371373427545e+001dB,1.79959734985098e+002°)
1.63305194789432e+000	(5.15371373295648e+001dB,1.79959613499782e+002°)
1.63681652142779e+000	(5.15371373165721e+001dB,1.79959491800340e+002°)
1.64058977319952e+000	(5.15371373032583e+001dB,1.79959369886130e+002°)
1.64437172321491e+000	(5.15371372901414e+001dB,1.79959247756501e+002°)
1.64816239152549e+000	(5.15371372767027e+001dB,1.79959125410810e+002°)
1.65196179822900e+000	(5.15371372634599e+001dB,1.79959002848406e+002°)
1.65576996346951e+000	(5.15371372498948e+001dB,1.79958880068640e+002°)
1.65958690743754e+000	(5.15371372365255e+001dB,1.79958757070859e+002°)
1.66341265037015e+000	(5.15371372227684e+001dB,1.79958633854415e+002°)
1.66724721255104e+000	(5.15371372092712e+001dB,1.79958510418651e+002°)
1.67109061431069e+000	(5.15371371954504e+001dB,1.79958386762914e+002°)
1.67494287602642e+000	(5.15371371815648e+001dB,1.79958262886549e+002°)
1.67880401812254e+000	(5.15371371678737e+001dB,1.79958138788897e+002°)
1.68267406107045e+000	(5.15371371538580e+001dB,1.79958014469303e+002°)
1.68655302538872e+000	(5.15371371400361e+001dB,1.79957889927104e+002°)
1.69044093164324e+000	(5.15371371258890e+001dB,1.79957765161645e+002°)
1.69433780044731e+000	(5.15371371119350e+001dB,1.79957640172259e+002°)
1.69824365246172e+000	(5.15371370976557e+001dB,1.79957514958288e+002°)
1.70215850839493e+000	(5.15371370833094e+001dB,1.79957389519065e+002°)
1.70608238900310e+000	(5.15371370691554e+001dB,1.79957263853926e+002°)
1.71001531509027e+000	(5.15371370546750e+001dB,1.79957137962205e+002°)
1.71395730750840e+000	(5.15371370403857e+001dB,1.79957011843233e+002°)
1.71790838715757e+000	(5.15371370257698e+001dB,1.79956885496344e+002°)
1.72186857498599e+000	(5.15371370113447e+001dB,1.79956758920866e+002°)
1.72583789199018e+000	(5.15371369965920e+001dB,1.79956632116129e+002°)
1.72981635921508e+000	(5.15371369817704e+001dB,1.79956505081461e+002°)
1.73380399775412e+000	(5.15371369671387e+001dB,1.79956377816186e+002°)
1.73780082874935e+000	(5.15371369521785e+001dB,1.79956250319633e+002°)
1.74180687339159e+000	(5.15371369374075e+001dB,1.79956122591122e+002°)
1.74582215292048e+000	(5.15371369223077e+001dB,1.79955994629980e+002°)
1.74984668862464e+000	(5.15371369071373e+001dB,1.79955866435526e+002°)
1.75388050184174e+000	(5.15371368921551e+001dB,1.79955738007080e+002°)
1.75792361395867e+000	(5.15371368768430e+001dB,1.79955609343962e+002°)
1.76197604641161e+000	(5.15371368617186e+001dB,1.79955480445489e+002°)
1.76603782068614e+000	(5.15371368462634e+001dB,1.79955351310980e+002°)
1.77010895831740e+000	(5.15371368307362e+001dB,1.79955221939748e+002°)
1.77418948089014e+000	(5.15371368153961e+001dB,1.79955092331107e+002°)
1.77827941003890e+000	(5.15371367997240e+001dB,1.79954962484372e+002°)
1.78237876744807e+000	(5.15371367839789e+001dB,1.79954832398853e+002°)
1.78648757485203e+000	(5.15371367684198e+001dB,1.79954702073858e+002°)
1.79060585403527e+000	(5.15371367525280e+001dB,1.79954571508701e+002°)
1.79473362683250e+000	(5.15371367368211e+001dB,1.79954440702686e+002°)
1.79887091512876e+000	(5.15371367207808e+001dB,1.79954309655121e+002°)
1.80301774085955e+000	(5.15371367046661e+001dB,1.79954178365312e+002°)
1.80717412601090e+000	(5.15371366887352e+001dB,1.79954046832560e+002°)
1.81134009261958e+000	(5.15371366724705e+001dB,1.79953915056171e+002°)
1.81551566277311e+000	(5.15371366561295e+001dB,1.79953783035445e+002°)
1.81970085860996e+000	(5.15371366399720e+001dB,1.79953650769680e+002°)
1.82389570231961e+000	(5.15371366234792e+001dB,1.79953518258178e+002°)
1.82810021614272e+000	(5.15371366069096e+001dB,1.79953385500235e+002°)
1.83231442237119e+000	(5.15371365905219e+001dB,1.79953252495146e+002°)
1.83653834334832e+000	(5.15371365737979e+001dB,1.79953119242209e+002°)
1.84077200146893e+000	(5.15371365569964e+001dB,1.79952985740715e+002°)
1.84501541917945e+000	(5.15371365403757e+001dB,1.79952851989955e+002°)
1.84926861897805e+000	(5.15371365234174e+001dB,1.79952717989223e+002°)
1.85353162341479e+000	(5.15371365063805e+001dB,1.79952583737808e+002°)
1.85780445509167e+000	(5.15371364895234e+001dB,1.79952449234995e+002°)
1.86208713666284e+000	(5.15371364723281e+001dB,1.79952314480075e+002°)
1.86637969083464e+000	(5.15371364550526e+001dB,1.79952179472331e+002°)
1.87068214036577e+000	(5.15371364379564e+001dB,1.79952044211047e+002°)
1.87499450806739e+000	(5.15371364205202e+001dB,1.79951908695509e+002°)
1.87931681680324e+000	(5.15371364030031e+001dB,1.79951772924996e+002°)
1.88364908948977e+000	(5.15371363854049e+001dB,1.79951636898788e+002°)
1.88799134909627e+000	(5.15371363679840e+001dB,1.79951500616163e+002°)
1.89234361864495e+000	(5.15371363502221e+001dB,1.79951364076402e+002°)
1.89670592121112e+000	(5.15371363323776e+001dB,1.79951227278778e+002°)
1.90107827992327e+000	(5.15371363147096e+001dB,1.79951090222565e+002°)
1.90546071796322e+000	(5.15371362966993e+001dB,1.79950952907040e+002°)
