Freq.	V(vf)
1.00000000000000e+000	(2.47197808001805e+001dB,-1.79995559288154e+002°)
1.00230523807790e+000	(2.47197808004051e+001dB,-1.79995581091474e+002°)
1.00461579027840e+000	(2.47197808006082e+001dB,-1.79995602871366e+002°)
1.00693166885180e+000	(2.47197808008301e+001dB,-1.79995624627944e+002°)
1.00925288607668e+000	(2.47197808010506e+001dB,-1.79995646361325e+002°)
1.01157945425990e+000	(2.47197808012497e+001dB,-1.79995668071624e+002°)
1.01391138573668e+000	(2.47197808014675e+001dB,-1.79995689758954e+002°)
1.01624869287070e+000	(2.47197808016839e+001dB,-1.79995711423433e+002°)
1.01859138805412e+000	(2.47197808018990e+001dB,-1.79995733065174e+002°)
1.02093948370768e+000	(2.47197808021128e+001dB,-1.79995754684292e+002°)
1.02329299228075e+000	(2.47197808023051e+001dB,-1.79995776280901e+002°)
1.02565192625141e+000	(2.47197808025162e+001dB,-1.79995797855117e+002°)
1.02801629812647e+000	(2.47197808027259e+001dB,-1.79995819407054e+002°)
1.03038612044162e+000	(2.47197808029343e+001dB,-1.79995840936825e+002°)
1.03276140576140e+000	(2.47197808031213e+001dB,-1.79995862444546e+002°)
1.03514216667934e+000	(2.47197808033271e+001dB,-1.79995883930329e+002°)
1.03752841581801e+000	(2.47197808035316e+001dB,-1.79995905394290e+002°)
1.03992016582906e+000	(2.47197808037347e+001dB,-1.79995926836542e+002°)
1.04231742939330e+000	(2.47197808039366e+001dB,-1.79995948257198e+002°)
1.04472021922080e+000	(2.47197808041171e+001dB,-1.79995969656372e+002°)
1.04712854805090e+000	(2.47197808043164e+001dB,-1.79995991034177e+002°)
1.04954242865232e+000	(2.47197808045143e+001dB,-1.79996012390728e+002°)
1.05196187382322e+000	(2.47197808047110e+001dB,-1.79996033726136e+002°)
1.05438689639126e+000	(2.47197808049065e+001dB,-1.79996055040516e+002°)
1.05681750921366e+000	(2.47197808050805e+001dB,-1.79996076333980e+002°)
1.05925372517729e+000	(2.47197808052733e+001dB,-1.79996097606641e+002°)
1.06169555719872e+000	(2.47197808054649e+001dB,-1.79996118858612e+002°)
1.06414301822431e+000	(2.47197808056553e+001dB,-1.79996140090005e+002°)
1.06659612123026e+000	(2.47197808058242e+001dB,-1.79996161300934e+002°)
1.06905487922266e+000	(2.47197808060120e+001dB,-1.79996182491510e+002°)
1.07151930523761e+000	(2.47197808061986e+001dB,-1.79996203661846e+002°)
1.07398941234124e+000	(2.47197808063839e+001dB,-1.79996224812055e+002°)
1.07646521362983e+000	(2.47197808065680e+001dB,-1.79996245942248e+002°)
1.07894672222983e+000	(2.47197808067307e+001dB,-1.79996267052537e+002°)
1.08143395129794e+000	(2.47197808069123e+001dB,-1.79996288143034e+002°)
1.08392691402120e+000	(2.47197808070926e+001dB,-1.79996309213852e+002°)
1.08642562361706e+000	(2.47197808072717e+001dB,-1.79996330265101e+002°)
1.08893009333343e+000	(2.47197808074295e+001dB,-1.79996351296894e+002°)
1.09144033644876e+000	(2.47197808076062e+001dB,-1.79996372309341e+002°)
1.09395636627209e+000	(2.47197808077816e+001dB,-1.79996393302555e+002°)
1.09647819614318e+000	(2.47197808079559e+001dB,-1.79996414276647e+002°)
1.09900583943252e+000	(2.47197808081088e+001dB,-1.79996435231728e+002°)
1.10153930954141e+000	(2.47197808082806e+001dB,-1.79996456167908e+002°)
1.10407861990207e+000	(2.47197808084512e+001dB,-1.79996477085300e+002°)
1.10662378397766e+000	(2.47197808086206e+001dB,-1.79996497984013e+002°)
1.10917481526240e+000	(2.47197808087687e+001dB,-1.79996518864159e+002°)
1.11173172728159e+000	(2.47197808089357e+001dB,-1.79996539725848e+002°)
1.11429453359173e+000	(2.47197808091016e+001dB,-1.79996560569192e+002°)
1.11686324778056e+000	(2.47197808092662e+001dB,-1.79996581394299e+002°)
1.11943788346715e+000	(2.47197808094096e+001dB,-1.79996602201282e+002°)
1.12201845430196e+000	(2.47197808095719e+001dB,-1.79996622990250e+002°)
1.12460497396692e+000	(2.47197808097330e+001dB,-1.79996643761313e+002°)
1.12719745617551e+000	(2.47197808098929e+001dB,-1.79996664514582e+002°)
1.12979591467280e+000	(2.47197808100315e+001dB,-1.79996685250167e+002°)
1.13240036323556e+000	(2.47197808101892e+001dB,-1.79996705968177e+002°)
1.13501081567231e+000	(2.47197808103456e+001dB,-1.79996726668722e+002°)
1.13762728582343e+000	(2.47197808105009e+001dB,-1.79996747351912e+002°)
1.14024978756117e+000	(2.47197808106349e+001dB,-1.79996768017858e+002°)
1.14287833478977e+000	(2.47197808107879e+001dB,-1.79996788666667e+002°)
1.14551294144553e+000	(2.47197808109397e+001dB,-1.79996809298451e+002°)
1.14815362149688e+000	(2.47197808110903e+001dB,-1.79996829913317e+002°)
1.15080038894443e+000	(2.47197808112197e+001dB,-1.79996850511377e+002°)
1.15345325782109e+000	(2.47197808113681e+001dB,-1.79996871092738e+002°)
1.15611224219210e+000	(2.47197808115154e+001dB,-1.79996891657509e+002°)
1.15877735615512e+000	(2.47197808116615e+001dB,-1.79996912205801e+002°)
1.16144861384034e+000	(2.47197808117864e+001dB,-1.79996932737721e+002°)
1.16412602941049e+000	(2.47197808119303e+001dB,-1.79996953253380e+002°)
1.16680961706096e+000	(2.47197808120730e+001dB,-1.79996973752884e+002°)
1.16949939101987e+000	(2.47197808122146e+001dB,-1.79996994236344e+002°)
1.17219536554813e+000	(2.47197808123350e+001dB,-1.79997014703867e+002°)
1.17489755493953e+000	(2.47197808124744e+001dB,-1.79997035155563e+002°)
1.17760597352080e+000	(2.47197808126127e+001dB,-1.79997055591540e+002°)
1.18032063565173e+000	(2.47197808127297e+001dB,-1.79997076011905e+002°)
1.18304155572516e+000	(2.47197808128658e+001dB,-1.79997096416768e+002°)
1.18576874816716e+000	(2.47197808130007e+001dB,-1.79997116806236e+002°)
1.18850222743702e+000	(2.47197808131346e+001dB,-1.79997137180418e+002°)
1.19124200802737e+000	(2.47197808132472e+001dB,-1.79997157539421e+002°)
1.19398810446427e+000	(2.47197808133789e+001dB,-1.79997177883354e+002°)
1.19674053130724e+000	(2.47197808135095e+001dB,-1.79997198212325e+002°)
1.19949930314938e+000	(2.47197808136188e+001dB,-1.79997218526441e+002°)
1.20226443461741e+000	(2.47197808137472e+001dB,-1.79997238825809e+002°)
1.20503594037179e+000	(2.47197808138745e+001dB,-1.79997259110538e+002°)
1.20781383510678e+000	(2.47197808140007e+001dB,-1.79997279380735e+002°)
1.21059813355048e+000	(2.47197808141058e+001dB,-1.79997299636508e+002°)
1.21338885046497e+000	(2.47197808142298e+001dB,-1.79997319877964e+002°)
1.21618600064636e+000	(2.47197808143529e+001dB,-1.79997340105210e+002°)
1.21898959892486e+000	(2.47197808144546e+001dB,-1.79997360318353e+002°)
1.22179966016487e+000	(2.47197808145755e+001dB,-1.79997380517501e+002°)
1.22461619926504e+000	(2.47197808146752e+001dB,-1.79997400702761e+002°)
1.22743923115840e+000	(2.47197808147939e+001dB,-1.79997420874240e+002°)
1.23026877081238e+000	(2.47197808149116e+001dB,-1.79997441032044e+002°)
1.23310483322890e+000	(2.47197808150081e+001dB,-1.79997461176281e+002°)
1.23594743344451e+000	(2.47197808151237e+001dB,-1.79997481307058e+002°)
1.23879658653036e+000	(2.47197808152382e+001dB,-1.79997501424480e+002°)
1.24165230759241e+000	(2.47197808153516e+001dB,-1.79997521528655e+002°)
1.24451461177138e+000	(2.47197808154439e+001dB,-1.79997541619690e+002°)
1.24738351424294e+000	(2.47197808155552e+001dB,-1.79997561697691e+002°)
1.25025903021771e+000	(2.47197808156656e+001dB,-1.79997581762764e+002°)
1.25314117494141e+000	(2.47197808157547e+001dB,-1.79997601815016e+002°)
1.25602996369487e+000	(2.47197808158630e+001dB,-1.79997621854552e+002°)
1.25892541179416e+000	(2.47197808159702e+001dB,-1.79997641881480e+002°)
1.26182753459066e+000	(2.47197808160562e+001dB,-1.79997661895906e+002°)
1.26473634747115e+000	(2.47197808161613e+001dB,-1.79997681897935e+002°)
1.26765186585784e+000	(2.47197808162604e+001dB,-1.79997701887674e+002°)
1.27057410520854e+000	(2.47197808163434e+001dB,-1.79997721865229e+002°)
1.27350308101666e+000	(2.47197808164454e+001dB,-1.79997741830705e+002°)
1.27643880881134e+000	(2.47197808165465e+001dB,-1.79997761784208e+002°)
1.27938130415752e+000	(2.47197808166263e+001dB,-1.79997781725845e+002°)
1.28233058265602e+000	(2.47197808167254e+001dB,-1.79997801655721e+002°)
1.28528665994361e+000	(2.47197808168233e+001dB,-1.79997821573941e+002°)
1.28824955169313e+000	(2.47197808169002e+001dB,-1.79997841480611e+002°)
1.29121927361353e+000	(2.47197808169961e+001dB,-1.79997861375837e+002°)
1.29419584144998e+000	(2.47197808170910e+001dB,-1.79997881259725e+002°)
1.29717927098395e+000	(2.47197808171648e+001dB,-1.79997901132379e+002°)
1.30016957803328e+000	(2.47197808172578e+001dB,-1.79997920993905e+002°)
1.30316677845229e+000	(2.47197808173497e+001dB,-1.79997940844408e+002°)
1.30617088813183e+000	(2.47197808174205e+001dB,-1.79997960683994e+002°)
1.30918192299940e+000	(2.47197808175104e+001dB,-1.79997980512768e+002°)
1.31219989901920e+000	(2.47197808175993e+001dB,-1.79998000330834e+002°)
1.31522483219223e+000	(2.47197808176671e+001dB,-1.79998020138299e+002°)
1.31825673855640e+000	(2.47197808177540e+001dB,-1.79998039935266e+002°)
1.32129563418657e+000	(2.47197808178399e+001dB,-1.79998059721842e+002°)
1.32434153519466e+000	(2.47197808179047e+001dB,-1.79998079498130e+002°)
1.32739445772973e+000	(2.47197808179887e+001dB,-1.79998099264236e+002°)
1.33045441797808e+000	(2.47197808180716e+001dB,-1.79998119020264e+002°)
1.33352143216332e+000	(2.47197808181335e+001dB,-1.79998138766320e+002°)
1.33659551654643e+000	(2.47197808182145e+001dB,-1.79998158502508e+002°)
1.33967668742593e+000	(2.47197808182945e+001dB,-1.79998178228932e+002°)
1.34276496113786e+000	(2.47197808183534e+001dB,-1.79998197945697e+002°)
1.34586035405594e+000	(2.47197808184314e+001dB,-1.79998217652908e+002°)
1.34896288259164e+000	(2.47197808185085e+001dB,-1.79998237350669e+002°)
1.35207256319427e+000	(2.47197808185645e+001dB,-1.79998257039085e+002°)
1.35518941235103e+000	(2.47197808186396e+001dB,-1.79998276718260e+002°)
1.35831344658715e+000	(2.47197808186936e+001dB,-1.79998296388298e+002°)
1.36144468246594e+000	(2.47197808187668e+001dB,-1.79998316049304e+002°)
1.36458313658892e+000	(2.47197808188390e+001dB,-1.79998335701381e+002°)
1.36772882559584e+000	(2.47197808188901e+001dB,-1.79998355344635e+002°)
1.37088176616484e+000	(2.47197808189603e+001dB,-1.79998374979169e+002°)
1.37404197501251e+000	(2.47197808190297e+001dB,-1.79998394605087e+002°)
1.37720946889394e+000	(2.47197808190779e+001dB,-1.79998414222493e+002°)
1.38038426460288e+000	(2.47197808191452e+001dB,-1.79998433831492e+002°)
1.38356637897177e+000	(2.47197808192117e+001dB,-1.79998453432188e+002°)
1.38675582887188e+000	(2.47197808192570e+001dB,-1.79998473024683e+002°)
1.38995263121334e+000	(2.47197808193215e+001dB,-1.79998492609083e+002°)
1.39315680294529e+000	(2.47197808193649e+001dB,-1.79998512185490e+002°)
1.39636836105593e+000	(2.47197808194275e+001dB,-1.79998531754009e+002°)
1.39958732257261e+000	(2.47197808194891e+001dB,-1.79998551314744e+002°)
1.40281370456195e+000	(2.47197808195297e+001dB,-1.79998570867798e+002°)
1.40604752412990e+000	(2.47197808195894e+001dB,-1.79998590413275e+002°)
1.40928879842186e+000	(2.47197808196281e+001dB,-1.79998609951279e+002°)
1.41253754462274e+000	(2.47197808196859e+001dB,-1.79998629481912e+002°)
1.41579377995707e+000	(2.47197808197428e+001dB,-1.79998649005279e+002°)
1.41905752168908e+000	(2.47197808197786e+001dB,-1.79998668521484e+002°)
1.42232878712281e+000	(2.47197808198336e+001dB,-1.79998688030629e+002°)
1.42560759360218e+000	(2.47197808198675e+001dB,-1.79998707532818e+002°)
1.42889395851109e+000	(2.47197808199206e+001dB,-1.79998727028154e+002°)
1.43218789927353e+000	(2.47197808199728e+001dB,-1.79998746516741e+002°)
1.43548943335364e+000	(2.47197808200039e+001dB,-1.79998765998683e+002°)
1.43879857825583e+000	(2.47197808200542e+001dB,-1.79998785474082e+002°)
1.44211535152486e+000	(2.47197808200834e+001dB,-1.79998804943042e+002°)
1.44543977074592e+000	(2.47197808201318e+001dB,-1.79998824405665e+002°)
1.44877185354475e+000	(2.47197808201792e+001dB,-1.79998843862056e+002°)
1.45211161758773e+000	(2.47197808202056e+001dB,-1.79998863312317e+002°)
1.45545908058195e+000	(2.47197808202512e+001dB,-1.79998882756551e+002°)
1.45881426027534e+000	(2.47197808202758e+001dB,-1.79998902194862e+002°)
1.46217717445671e+000	(2.47197808203195e+001dB,-1.79998921627352e+002°)
1.46554784095590e+000	(2.47197808203422e+001dB,-1.79998941054125e+002°)
1.46892627764385e+000	(2.47197808203840e+001dB,-1.79998960475284e+002°)
1.47231250243271e+000	(2.47197808204250e+001dB,-1.79998979890931e+002°)
1.47570653327588e+000	(2.47197808204449e+001dB,-1.79998999301169e+002°)
1.47910838816819e+000	(2.47197808204840e+001dB,-1.79999018706102e+002°)
1.48251808514594e+000	(2.47197808205020e+001dB,-1.79999038105833e+002°)
1.48593564228699e+000	(2.47197808205392e+001dB,-1.79999057500463e+002°)
1.48936107771090e+000	(2.47197808205554e+001dB,-1.79999076890096e+002°)
1.49279440957898e+000	(2.47197808205706e+001dB,-1.79999096274835e+002°)
1.49623565609442e+000	(2.47197808206051e+001dB,-1.79999115654783e+002°)
1.49968483550236e+000	(2.47197808206386e+001dB,-1.79999135030042e+002°)
1.50314196609001e+000	(2.47197808206511e+001dB,-1.79999154400715e+002°)
1.50660706618673e+000	(2.47197808206828e+001dB,-1.79999173766905e+002°)
1.51008015416413e+000	(2.47197808206934e+001dB,-1.79999193128714e+002°)
1.51356124843619e+000	(2.47197808207233e+001dB,-1.79999212486245e+002°)
1.51705036745932e+000	(2.47197808207321e+001dB,-1.79999231839600e+002°)
1.52054752973248e+000	(2.47197808207601e+001dB,-1.79999251188883e+002°)
1.52405275379728e+000	(2.47197808207671e+001dB,-1.79999270534196e+002°)
1.52756605823806e+000	(2.47197808207932e+001dB,-1.79999289875642e+002°)
1.53108746168202e+000	(2.47197808208185e+001dB,-1.79999309213322e+002°)
1.53461698279928e+000	(2.47197808208227e+001dB,-1.79999328547340e+002°)
1.53815464030302e+000	(2.47197808208461e+001dB,-1.79999347877798e+002°)
1.54170045294954e+000	(2.47197808208485e+001dB,-1.79999367204798e+002°)
1.54525443953840e+000	(2.47197808208701e+001dB,-1.79999386528444e+002°)
1.54881661891247e+000	(2.47197808208706e+001dB,-1.79999405848837e+002°)
1.55238700995807e+000	(2.47197808208903e+001dB,-1.79999425166079e+002°)
1.55596563160506e+000	(2.47197808208890e+001dB,-1.79999444480274e+002°)
1.55955250282694e+000	(2.47197808209070e+001dB,-1.79999463791524e+002°)
1.56314764264094e+000	(2.47197808209039e+001dB,-1.79999483099931e+002°)
1.56675107010813e+000	(2.47197808208999e+001dB,-1.79999502405597e+002°)
1.57036280433354e+000	(2.47197808209150e+001dB,-1.79999521708625e+002°)
1.57398286446620e+000	(2.47197808209092e+001dB,-1.79999541009117e+002°)
1.57761126969933e+000	(2.47197808209225e+001dB,-1.79999560307176e+002°)
1.58124803927037e+000	(2.47197808209148e+001dB,-1.79999579602903e+002°)
1.58489319246110e+000	(2.47197808209264e+001dB,-1.79999598896402e+002°)
1.58854674859776e+000	(2.47197808209119e+001dB,-1.79999618187774e+002°)
1.59220872705115e+000	(2.47197808209216e+001dB,-1.79999637477122e+002°)
1.59587914723672e+000	(2.47197808209103e+001dB,-1.79999656764547e+002°)
1.59955802861465e+000	(2.47197808209181e+001dB,-1.79999676050153e+002°)
1.60324539069002e+000	(2.47197808209050e+001dB,-1.79999695334041e+002°)
1.60694125301286e+000	(2.47197808209111e+001dB,-1.79999714616314e+002°)
1.61064563517825e+000	(2.47197808208961e+001dB,-1.79999733897074e+002°)
1.61435855682647e+000	(2.47197808209004e+001dB,-1.79999753176423e+002°)
1.61808003764305e+000	(2.47197808208836e+001dB,-1.79999772454463e+002°)
1.62181009735891e+000	(2.47197808208860e+001dB,-1.79999791731297e+002°)
1.62554875575047e+000	(2.47197808208674e+001dB,-1.79999811007026e+002°)
1.62929603263970e+000	(2.47197808208680e+001dB,-1.79999830281754e+002°)
1.63305194789432e+000	(2.47197808208476e+001dB,-1.79999849555582e+002°)
1.63681652142779e+000	(2.47197808208464e+001dB,-1.79999868828612e+002°)
1.64058977319952e+000	(2.47197808208241e+001dB,-1.79999888100947e+002°)
1.64437172321491e+000	(2.47197808208211e+001dB,-1.79999907372688e+002°)
1.64816239152549e+000	(2.47197808207970e+001dB,-1.79999926643939e+002°)
1.65196179822900e+000	(2.47197808207720e+001dB,-1.79999945914800e+002°)
1.65576996346951e+000	(2.47197808207663e+001dB,-1.79999965185375e+002°)
1.65958690743754e+000	(2.47197808207395e+001dB,-1.79999984455765e+002°)
1.66341265037015e+000	(2.47197808207319e+001dB,1.79999996273928e+002°)
1.66724721255104e+000	(2.47197808207033e+001dB,1.79999977003600e+002°)
1.67109061431069e+000	(2.47197808206939e+001dB,1.79999957733151e+002°)
1.67494287602642e+000	(2.47197808206634e+001dB,1.79999938462477e+002°)
1.67880401812254e+000	(2.47197808206522e+001dB,1.79999919191478e+002°)
1.68267406107045e+000	(2.47197808206199e+001dB,1.79999899920050e+002°)
1.68655302538872e+000	(2.47197808205867e+001dB,1.79999880648091e+002°)
1.69044093164324e+000	(2.47197808205728e+001dB,1.79999861375499e+002°)
1.69433780044731e+000	(2.47197808205378e+001dB,1.79999842102173e+002°)
1.69824365246172e+000	(2.47197808205220e+001dB,1.79999822828009e+002°)
1.70215850839493e+000	(2.47197808204852e+001dB,1.79999803552906e+002°)
1.70608238900310e+000	(2.47197808204675e+001dB,1.79999784276761e+002°)
1.71001531509027e+000	(2.47197808204289e+001dB,1.79999764999473e+002°)
1.71395730750840e+000	(2.47197808203893e+001dB,1.79999745720939e+002°)
1.71790838715757e+000	(2.47197808203488e+001dB,1.79999726441056e+002°)
1.72186857498599e+000	(2.47197808203275e+001dB,1.79999707159724e+002°)
1.72583789199018e+000	(2.47197808202852e+001dB,1.79999687876838e+002°)
1.72981635921508e+000	(2.47197808202621e+001dB,1.79999668592298e+002°)
1.73380399775412e+000	(2.47197808202180e+001dB,1.79999649306001e+002°)
1.73780082874935e+000	(2.47197808201729e+001dB,1.79999630017844e+002°)
1.74180687339159e+000	(2.47197808201470e+001dB,1.79999610727726e+002°)
1.74582215292048e+000	(2.47197808201001e+001dB,1.79999591435543e+002°)
1.74984668862464e+000	(2.47197808200725e+001dB,1.79999572141195e+002°)
1.75388050184174e+000	(2.47197808200237e+001dB,1.79999552844578e+002°)
1.75792361395867e+000	(2.47197808199741e+001dB,1.79999533545591e+002°)
1.76197604641161e+000	(2.47197808199436e+001dB,1.79999514244130e+002°)
1.76603782068614e+000	(2.47197808198921e+001dB,1.79999494940094e+002°)
1.77010895831740e+000	(2.47197808198598e+001dB,1.79999475633380e+002°)
1.77418948089014e+000	(2.47197808198065e+001dB,1.79999456323886e+002°)
1.77827941003890e+000	(2.47197808197522e+001dB,1.79999437011509e+002°)
1.78237876744807e+000	(2.47197808196970e+001dB,1.79999417696148e+002°)
1.78648757485203e+000	(2.47197808196610e+001dB,1.79999398377699e+002°)
1.79060585403527e+000	(2.47197808196040e+001dB,1.79999379056061e+002°)
1.79473362683250e+000	(2.47197808195460e+001dB,1.79999359731130e+002°)
1.79887091512876e+000	(2.47197808195072e+001dB,1.79999340402804e+002°)
1.80301774085955e+000	(2.47197808194474e+001dB,1.79999321070982e+002°)
1.80717412601090e+000	(2.47197808193867e+001dB,1.79999301735560e+002°)
1.81134009261958e+000	(2.47197808193451e+001dB,1.79999282396436e+002°)
1.81551566277311e+000	(2.47197808192825e+001dB,1.79999263053507e+002°)
1.81970085860996e+000	(2.47197808192189e+001dB,1.79999243706671e+002°)
1.82389570231961e+000	(2.47197808191746e+001dB,1.79999224355825e+002°)
1.82810021614272e+000	(2.47197808191092e+001dB,1.79999205000867e+002°)
1.83231442237119e+000	(2.47197808190428e+001dB,1.79999185641693e+002°)
1.83653834334832e+000	(2.47197808189957e+001dB,1.79999166278202e+002°)
1.84077200146893e+000	(2.47197808189275e+001dB,1.79999146910291e+002°)
1.84501541917945e+000	(2.47197808188583e+001dB,1.79999127537857e+002°)
1.84926861897805e+000	(2.47197808188083e+001dB,1.79999108160797e+002°)
1.85353162341479e+000	(2.47197808187323e+001dB,1.79999088779009e+002°)
1.85780445509167e+000	(2.47197808186603e+001dB,1.79999069392389e+002°)
1.86208713666284e+000	(2.47197808186075e+001dB,1.79999050000836e+002°)
1.86637969083464e+000	(2.47197808185337e+001dB,1.79999030604245e+002°)
1.87068214036577e+000	(2.47197808184589e+001dB,1.79999011202515e+002°)
1.87499450806739e+000	(2.47197808184033e+001dB,1.79998991795543e+002°)
1.87931681680324e+000	(2.47197808183266e+001dB,1.79998972383225e+002°)
1.88364908948977e+000	(2.47197808182489e+001dB,1.79998952965459e+002°)
1.88799134909627e+000	(2.47197808181905e+001dB,1.79998933542141e+002°)
1.89234361864495e+000	(2.47197808181110e+001dB,1.79998914113169e+002°)
