Freq.	V(n022)
1.00000000000000e+000	(1.15582182681461e+001dB,1.79991697144073e+002°)
1.00230523807790e+000	(1.15582182674823e+001dB,1.79991677993127e+002°)
1.00461579027840e+000	(1.15582182668151e+001dB,1.79991658798059e+002°)
1.00693166885180e+000	(1.15582182661423e+001dB,1.79991639558766e+002°)
1.00925288607668e+000	(1.15582182654687e+001dB,1.79991620275147e+002°)
1.01157945425990e+000	(1.15582182647953e+001dB,1.79991600947099e+002°)
1.01391138573668e+000	(1.15582182641183e+001dB,1.79991581574521e+002°)
1.01624869287070e+000	(1.15582182634391e+001dB,1.79991562157309e+002°)
1.01859138805412e+000	(1.15582182627491e+001dB,1.79991542695360e+002°)
1.02093948370768e+000	(1.15582182620593e+001dB,1.79991523188572e+002°)
1.02329299228075e+000	(1.15582182613641e+001dB,1.79991503636840e+002°)
1.02565192625141e+000	(1.15582182606710e+001dB,1.79991484040062e+002°)
1.02801629812647e+000	(1.15582182599778e+001dB,1.79991464398132e+002°)
1.03038612044162e+000	(1.15582182592745e+001dB,1.79991444710948e+002°)
1.03276140576140e+000	(1.15582182585747e+001dB,1.79991424978405e+002°)
1.03514216667934e+000	(1.15582182578597e+001dB,1.79991405200397e+002°)
1.03752841581801e+000	(1.15582182571496e+001dB,1.79991385376821e+002°)
1.03992016582906e+000	(1.15582182564378e+001dB,1.79991365507571e+002°)
1.04231742939330e+000	(1.15582182557206e+001dB,1.79991345592542e+002°)
1.04472021922080e+000	(1.15582182549994e+001dB,1.79991325631628e+002°)
1.04712854805090e+000	(1.15582182542760e+001dB,1.79991305624723e+002°)
1.04954242865232e+000	(1.15582182535506e+001dB,1.79991285571722e+002°)
1.05196187382322e+000	(1.15582182528124e+001dB,1.79991265472518e+002°)
1.05438689639126e+000	(1.15582182520786e+001dB,1.79991245327004e+002°)
1.05681750921366e+000	(1.15582182513439e+001dB,1.79991225135073e+002°)
1.05925372517729e+000	(1.15582182505994e+001dB,1.79991204896620e+002°)
1.06169555719872e+000	(1.15582182498578e+001dB,1.79991184611535e+002°)
1.06414301822431e+000	(1.15582182491143e+001dB,1.79991164279712e+002°)
1.06659612123026e+000	(1.15582182483628e+001dB,1.79991143901043e+002°)
1.06905487922266e+000	(1.15582182476050e+001dB,1.79991123475420e+002°)
1.07151930523761e+000	(1.15582182468502e+001dB,1.79991103002735e+002°)
1.07398941234124e+000	(1.15582182460877e+001dB,1.79991082482878e+002°)
1.07646521362983e+000	(1.15582182453156e+001dB,1.79991061915742e+002°)
1.07894672222983e+000	(1.15582182445468e+001dB,1.79991041301216e+002°)
1.08143395129794e+000	(1.15582182437755e+001dB,1.79991020639193e+002°)
1.08392691402120e+000	(1.15582182430006e+001dB,1.79990999929562e+002°)
1.08642562361706e+000	(1.15582182422206e+001dB,1.79990979172214e+002°)
1.08893009333343e+000	(1.15582182414385e+001dB,1.79990958367038e+002°)
1.09144033644876e+000	(1.15582182406495e+001dB,1.79990937513924e+002°)
1.09395636627209e+000	(1.15582182398606e+001dB,1.79990916612762e+002°)
1.09647819614318e+000	(1.15582182390630e+001dB,1.79990895663441e+002°)
1.09900583943252e+000	(1.15582182382732e+001dB,1.79990874665849e+002°)
1.10153930954141e+000	(1.15582182374688e+001dB,1.79990853619876e+002°)
1.10407861990207e+000	(1.15582182366592e+001dB,1.79990832525409e+002°)
1.10662378397766e+000	(1.15582182358560e+001dB,1.79990811382338e+002°)
1.10917481526240e+000	(1.15582182350382e+001dB,1.79990790190549e+002°)
1.11173172728159e+000	(1.15582182342240e+001dB,1.79990768949931e+002°)
1.11429453359173e+000	(1.15582182334105e+001dB,1.79990747660371e+002°)
1.11686324778056e+000	(1.15582182325821e+001dB,1.79990726321756e+002°)
1.11943788346715e+000	(1.15582182317563e+001dB,1.79990704933972e+002°)
1.12201845430196e+000	(1.15582182309251e+001dB,1.79990683496908e+002°)
1.12460497396692e+000	(1.15582182300919e+001dB,1.79990662010448e+002°)
1.12719745617551e+000	(1.15582182292460e+001dB,1.79990640474479e+002°)
1.12979591467280e+000	(1.15582182284073e+001dB,1.79990618888886e+002°)
1.13240036323556e+000	(1.15582182275554e+001dB,1.79990597253556e+002°)
1.13501081567231e+000	(1.15582182267072e+001dB,1.79990575568374e+002°)
1.13762728582343e+000	(1.15582182258522e+001dB,1.79990553833224e+002°)
1.14024978756117e+000	(1.15582182249990e+001dB,1.79990532047992e+002°)
1.14287833478977e+000	(1.15582182241302e+001dB,1.79990510212561e+002°)
1.14551294144553e+000	(1.15582182232632e+001dB,1.79990488326817e+002°)
1.14815362149688e+000	(1.15582182223919e+001dB,1.79990466390642e+002°)
1.15080038894443e+000	(1.15582182215195e+001dB,1.79990444403922e+002°)
1.15345325782109e+000	(1.15582182206390e+001dB,1.79990422366538e+002°)
1.15611224219210e+000	(1.15582182197520e+001dB,1.79990400278375e+002°)
1.15877735615512e+000	(1.15582182188673e+001dB,1.79990378139315e+002°)
1.16144861384034e+000	(1.15582182179724e+001dB,1.79990355949241e+002°)
1.16412602941049e+000	(1.15582182170804e+001dB,1.79990333708035e+002°)
1.16680961706096e+000	(1.15582182161800e+001dB,1.79990311415580e+002°)
1.16949939101987e+000	(1.15582182152748e+001dB,1.79990289071757e+002°)
1.17219536554813e+000	(1.15582182143688e+001dB,1.79990266676447e+002°)
1.17489755493953e+000	(1.15582182134621e+001dB,1.79990244229532e+002°)
1.17760597352080e+000	(1.15582182125482e+001dB,1.79990221730893e+002°)
1.18032063565173e+000	(1.15582182116209e+001dB,1.79990199180411e+002°)
1.18304155572516e+000	(1.15582182106983e+001dB,1.79990176577965e+002°)
1.18576874816716e+000	(1.15582182097715e+001dB,1.79990153923437e+002°)
1.18850222743702e+000	(1.15582182088367e+001dB,1.79990131216706e+002°)
1.19124200802737e+000	(1.15582182079006e+001dB,1.79990108457652e+002°)
1.19398810446427e+000	(1.15582182069564e+001dB,1.79990085646154e+002°)
1.19674053130724e+000	(1.15582182060038e+001dB,1.79990062782090e+002°)
1.19949930314938e+000	(1.15582182050664e+001dB,1.79990039865341e+002°)
1.20226443461741e+000	(1.15582182041096e+001dB,1.79990016895784e+002°)
1.20503594037179e+000	(1.15582182031502e+001dB,1.79989993873298e+002°)
1.20781383510678e+000	(1.15582182021847e+001dB,1.79989970797760e+002°)
1.21059813355048e+000	(1.15582182012150e+001dB,1.79989947669048e+002°)
1.21338885046497e+000	(1.15582182002410e+001dB,1.79989924487040e+002°)
1.21618600064636e+000	(1.15582181992691e+001dB,1.79989901251612e+002°)
1.21898959892486e+000	(1.15582181982896e+001dB,1.79989877962642e+002°)
1.22179966016487e+000	(1.15582181973033e+001dB,1.79989854620006e+002°)
1.22461619926504e+000	(1.15582181963047e+001dB,1.79989831223581e+002°)
1.22743923115840e+000	(1.15582181953084e+001dB,1.79989807773241e+002°)
1.23026877081238e+000	(1.15582181943129e+001dB,1.79989784268863e+002°)
1.23310483322890e+000	(1.15582181933079e+001dB,1.79989760710322e+002°)
1.23594743344451e+000	(1.15582181923025e+001dB,1.79989737097494e+002°)
1.23879658653036e+000	(1.15582181912855e+001dB,1.79989713430253e+002°)
1.24165230759241e+000	(1.15582181902668e+001dB,1.79989689708473e+002°)
1.24451461177138e+000	(1.15582181892458e+001dB,1.79989665932030e+002°)
1.24738351424294e+000	(1.15582181882177e+001dB,1.79989642100796e+002°)
1.25025903021771e+000	(1.15582181871860e+001dB,1.79989618214646e+002°)
1.25314117494141e+000	(1.15582181861472e+001dB,1.79989594273452e+002°)
1.25602996369487e+000	(1.15582181851059e+001dB,1.79989570277088e+002°)
1.25892541179416e+000	(1.15582181840591e+001dB,1.79989546225427e+002°)
1.26182753459066e+000	(1.15582181830056e+001dB,1.79989522118341e+002°)
1.26473634747115e+000	(1.15582181819467e+001dB,1.79989497955703e+002°)
1.26765186585784e+000	(1.15582181808917e+001dB,1.79989473737384e+002°)
1.27057410520854e+000	(1.15582181798245e+001dB,1.79989449463255e+002°)
1.27350308101666e+000	(1.15582181787548e+001dB,1.79989425133189e+002°)
1.27643880881134e+000	(1.15582181776743e+001dB,1.79989400747055e+002°)
1.27938130415752e+000	(1.15582181765953e+001dB,1.79989376304726e+002°)
1.28233058265602e+000	(1.15582181755088e+001dB,1.79989351806071e+002°)
1.28528665994361e+000	(1.15582181744146e+001dB,1.79989327250960e+002°)
1.28824955169313e+000	(1.15582181733238e+001dB,1.79989302639263e+002°)
1.29121927361353e+000	(1.15582181722202e+001dB,1.79989277970850e+002°)
1.29419584144998e+000	(1.15582181711088e+001dB,1.79989253245590e+002°)
1.29717927098395e+000	(1.15582181700000e+001dB,1.79989228463352e+002°)
1.30016957803328e+000	(1.15582181688863e+001dB,1.79989203624004e+002°)
1.30316677845229e+000	(1.15582181677603e+001dB,1.79989178727414e+002°)
1.30617088813183e+000	(1.15582181666374e+001dB,1.79989153773452e+002°)
1.30918192299940e+000	(1.15582181655026e+001dB,1.79989128761984e+002°)
1.31219989901920e+000	(1.15582181643687e+001dB,1.79989103692877e+002°)
1.31522483219223e+000	(1.15582181632273e+001dB,1.79989078566000e+002°)
1.31825673855640e+000	(1.15582181620756e+001dB,1.79989053381218e+002°)
1.32129563418657e+000	(1.15582181609188e+001dB,1.79989028138398e+002°)
1.32434153519466e+000	(1.15582181597653e+001dB,1.79989002837407e+002°)
1.32739445772973e+000	(1.15582181585984e+001dB,1.79988977478110e+002°)
1.33045441797808e+000	(1.15582181574363e+001dB,1.79988952060372e+002°)
1.33352143216332e+000	(1.15582181562570e+001dB,1.79988926584059e+002°)
1.33659551654643e+000	(1.15582181550715e+001dB,1.79988901049037e+002°)
1.33967668742593e+000	(1.15582181538920e+001dB,1.79988875455168e+002°)
1.34276496113786e+000	(1.15582181526983e+001dB,1.79988849802319e+002°)
1.34586035405594e+000	(1.15582181515088e+001dB,1.79988824090352e+002°)
1.34896288259164e+000	(1.15582181503000e+001dB,1.79988798319132e+002°)
1.35207256319427e+000	(1.15582181490988e+001dB,1.79988772488522e+002°)
1.35518941235103e+000	(1.15582181478816e+001dB,1.79988746598384e+002°)
1.35831344658715e+000	(1.15582181466652e+001dB,1.79988720648582e+002°)
1.36144468246594e+000	(1.15582181454404e+001dB,1.79988694638978e+002°)
1.36458313658892e+000	(1.15582181442061e+001dB,1.79988668569434e+002°)
1.36772882559584e+000	(1.15582181429726e+001dB,1.79988642439812e+002°)
1.37088176616484e+000	(1.15582181417289e+001dB,1.79988616249974e+002°)
1.37404197501251e+000	(1.15582181404888e+001dB,1.79988589999780e+002°)
1.37720946889394e+000	(1.15582181392317e+001dB,1.79988563689091e+002°)
1.38038426460288e+000	(1.15582181379767e+001dB,1.79988537317768e+002°)
1.38356637897177e+000	(1.15582181367051e+001dB,1.79988510885671e+002°)
1.38675582887188e+000	(1.15582181354382e+001dB,1.79988484392660e+002°)
1.38995263121334e+000	(1.15582181341659e+001dB,1.79988457838594e+002°)
1.39315680294529e+000	(1.15582181328809e+001dB,1.79988431223334e+002°)
1.39636836105593e+000	(1.15582181315967e+001dB,1.79988404546736e+002°)
1.39958732257261e+000	(1.15582181302983e+001dB,1.79988377808661e+002°)
1.40281370456195e+000	(1.15582181290046e+001dB,1.79988351008966e+002°)
1.40604752412990e+000	(1.15582181276931e+001dB,1.79988324147509e+002°)
1.40928879842186e+000	(1.15582181263834e+001dB,1.79988297224148e+002°)
1.41253754462274e+000	(1.15582181250605e+001dB,1.79988270238740e+002°)
1.41579377995707e+000	(1.15582181237392e+001dB,1.79988243191142e+002°)
1.41905752168908e+000	(1.15582181224096e+001dB,1.79988216081210e+002°)
1.42232878712281e+000	(1.15582181210695e+001dB,1.79988188908802e+002°)
1.42560759360218e+000	(1.15582181197332e+001dB,1.79988161673772e+002°)
1.42889395851109e+000	(1.15582181183792e+001dB,1.79988134375977e+002°)
1.43218789927353e+000	(1.15582181170292e+001dB,1.79988107015271e+002°)
1.43548943335364e+000	(1.15582181156665e+001dB,1.79988079591510e+002°)
1.43879857825583e+000	(1.15582181142996e+001dB,1.79988052104548e+002°)
1.44211535152486e+000	(1.15582181129251e+001dB,1.79988024554240e+002°)
1.44543977074592e+000	(1.15582181115470e+001dB,1.79987996940438e+002°)
1.44877185354475e+000	(1.15582181101587e+001dB,1.79987969262998e+002°)
1.45211161758773e+000	(1.15582181087665e+001dB,1.79987941521773e+002°)
1.45545908058195e+000	(1.15582181073663e+001dB,1.79987913716614e+002°)
1.45881426027534e+000	(1.15582181059572e+001dB,1.79987885847375e+002°)
1.46217717445671e+000	(1.15582181045468e+001dB,1.79987857913908e+002°)
1.46554784095590e+000	(1.15582181031308e+001dB,1.79987829916065e+002°)
1.46892627764385e+000	(1.15582181017049e+001dB,1.79987801853698e+002°)
1.47231250243271e+000	(1.15582181002723e+001dB,1.79987773726657e+002°)
1.47570653327588e+000	(1.15582180988346e+001dB,1.79987745534793e+002°)
1.47910838816819e+000	(1.15582180973909e+001dB,1.79987717277958e+002°)
1.48251808514594e+000	(1.15582180959338e+001dB,1.79987688956001e+002°)
1.48593564228699e+000	(1.15582180944769e+001dB,1.79987660568772e+002°)
1.48936107771090e+000	(1.15582180930157e+001dB,1.79987632116120e+002°)
1.49279440957898e+000	(1.15582180915444e+001dB,1.79987603597896e+002°)
1.49623565609442e+000	(1.15582180900628e+001dB,1.79987575013947e+002°)
1.49968483550236e+000	(1.15582180885747e+001dB,1.79987546364121e+002°)
1.50314196609001e+000	(1.15582180870869e+001dB,1.79987517648268e+002°)
1.50660706618673e+000	(1.15582180855881e+001dB,1.79987488866235e+002°)
1.51008015416413e+000	(1.15582180840764e+001dB,1.79987460017869e+002°)
1.51356124843619e+000	(1.15582180825665e+001dB,1.79987431103017e+002°)
1.51705036745932e+000	(1.15582180810454e+001dB,1.79987402121527e+002°)
1.52054752973248e+000	(1.15582180795215e+001dB,1.79987373073243e+002°)
1.52405275379728e+000	(1.15582180779877e+001dB,1.79987343958013e+002°)
1.52756605823806e+000	(1.15582180764490e+001dB,1.79987314775682e+002°)
1.53108746168202e+000	(1.15582180748897e+001dB,1.79987285526095e+002°)
1.53461698279928e+000	(1.15582180733351e+001dB,1.79987256209097e+002°)
1.53815464030302e+000	(1.15582180717724e+001dB,1.79987226824533e+002°)
1.54170045294954e+000	(1.15582180702073e+001dB,1.79987197372247e+002°)
1.54525443953840e+000	(1.15582180686312e+001dB,1.79987167852083e+002°)
1.54881661891247e+000	(1.15582180670428e+001dB,1.79987138263884e+002°)
1.55238700995807e+000	(1.15582180654550e+001dB,1.79987108607493e+002°)
1.55596563160506e+000	(1.15582180638522e+001dB,1.79987078882753e+002°)
1.55955250282694e+000	(1.15582180622519e+001dB,1.79987049089507e+002°)
1.56314764264094e+000	(1.15582180606358e+001dB,1.79987019227597e+002°)
1.56675107010813e+000	(1.15582180590075e+001dB,1.79986989296863e+002°)
1.57036280433354e+000	(1.15582180573800e+001dB,1.79986959297149e+002°)
1.57398286446620e+000	(1.15582180557479e+001dB,1.79986929228293e+002°)
1.57761126969933e+000	(1.15582180540988e+001dB,1.79986899090138e+002°)
1.58124803927037e+000	(1.15582180524496e+001dB,1.79986868882524e+002°)
1.58489319246110e+000	(1.15582180507917e+001dB,1.79986838605289e+002°)
1.58854674859776e+000	(1.15582180491251e+001dB,1.79986808258274e+002°)
1.59220872705115e+000	(1.15582180474509e+001dB,1.79986777841318e+002°)
1.59587914723672e+000	(1.15582180457699e+001dB,1.79986747354259e+002°)
1.59955802861465e+000	(1.15582180440774e+001dB,1.79986716796936e+002°)
1.60324539069002e+000	(1.15582180423799e+001dB,1.79986686169187e+002°)
1.60694125301286e+000	(1.15582180406710e+001dB,1.79986655470849e+002°)
1.61064563517825e+000	(1.15582180389603e+001dB,1.79986624701760e+002°)
1.61435855682647e+000	(1.15582180372440e+001dB,1.79986593861756e+002°)
1.61808003764305e+000	(1.15582180355142e+001dB,1.79986562950675e+002°)
1.62181009735891e+000	(1.15582180337720e+001dB,1.79986531968351e+002°)
1.62554875575047e+000	(1.15582180320287e+001dB,1.79986500914622e+002°)
1.62929603263970e+000	(1.15582180302743e+001dB,1.79986469789321e+002°)
1.63305194789432e+000	(1.15582180285119e+001dB,1.79986438592285e+002°)
1.63681652142779e+000	(1.15582180267397e+001dB,1.79986407323348e+002°)
1.64058977319952e+000	(1.15582180249646e+001dB,1.79986375982343e+002°)
1.64437172321491e+000	(1.15582180231787e+001dB,1.79986344569106e+002°)
1.64816239152549e+000	(1.15582180213872e+001dB,1.79986313083469e+002°)
1.65196179822900e+000	(1.15582180195868e+001dB,1.79986281525265e+002°)
1.65576996346951e+000	(1.15582180177761e+001dB,1.79986249894327e+002°)
1.65958690743754e+000	(1.15582180159528e+001dB,1.79986218190487e+002°)
1.66341265037015e+000	(1.15582180141245e+001dB,1.79986186413578e+002°)
1.66724721255104e+000	(1.15582180122858e+001dB,1.79986154563431e+002°)
1.67109061431069e+000	(1.15582180104511e+001dB,1.79986122639876e+002°)
1.67494287602642e+000	(1.15582180085940e+001dB,1.79986090642745e+002°)
1.67880401812254e+000	(1.15582180067326e+001dB,1.79986058571868e+002°)
1.68267406107045e+000	(1.15582180048567e+001dB,1.79986026427075e+002°)
1.68655302538872e+000	(1.15582180029802e+001dB,1.79985994208196e+002°)
1.69044093164324e+000	(1.15582180010935e+001dB,1.79985961915059e+002°)
1.69433780044731e+000	(1.15582179991953e+001dB,1.79985929547494e+002°)
1.69824365246172e+000	(1.15582179972856e+001dB,1.79985897105328e+002°)
1.70215850839493e+000	(1.15582179953816e+001dB,1.79985864588391e+002°)
1.70608238900310e+000	(1.15582179934600e+001dB,1.79985831996509e+002°)
1.71001531509027e+000	(1.15582179915232e+001dB,1.79985799329510e+002°)
1.71395730750840e+000	(1.15582179895890e+001dB,1.79985766587220e+002°)
1.71790838715757e+000	(1.15582179876354e+001dB,1.79985733769466e+002°)
1.72186857498599e+000	(1.15582179856747e+001dB,1.79985700876074e+002°)
1.72583789199018e+000	(1.15582179837100e+001dB,1.79985667906869e+002°)
1.72981635921508e+000	(1.15582179817310e+001dB,1.79985634861678e+002°)
1.73380399775412e+000	(1.15582179797435e+001dB,1.79985601740323e+002°)
1.73780082874935e+000	(1.15582179777562e+001dB,1.79985568542631e+002°)
1.74180687339159e+000	(1.15582179757453e+001dB,1.79985535268424e+002°)
1.74582215292048e+000	(1.15582179737385e+001dB,1.79985501917527e+002°)
1.74984668862464e+000	(1.15582179717142e+001dB,1.79985468489763e+002°)
1.75388050184174e+000	(1.15582179696790e+001dB,1.79985434984954e+002°)
1.75792361395867e+000	(1.15582179676410e+001dB,1.79985401402922e+002°)
1.76197604641161e+000	(1.15582179655879e+001dB,1.79985367743491e+002°)
1.76603782068614e+000	(1.15582179635312e+001dB,1.79985334006481e+002°)
1.77010895831740e+000	(1.15582179614540e+001dB,1.79985300191713e+002°)
1.77418948089014e+000	(1.15582179593831e+001dB,1.79985266299008e+002°)
1.77827941003890e+000	(1.15582179572900e+001dB,1.79985232328187e+002°)
1.78237876744807e+000	(1.15582179551919e+001dB,1.79985198279069e+002°)
1.78648757485203e+000	(1.15582179530812e+001dB,1.79985164151473e+002°)
1.79060585403527e+000	(1.15582179509650e+001dB,1.79985129945220e+002°)
1.79473362683250e+000	(1.15582179488327e+001dB,1.79985095660127e+002°)
1.79887091512876e+000	(1.15582179467033e+001dB,1.79985061296013e+002°)
1.80301774085955e+000	(1.15582179445487e+001dB,1.79985026852695e+002°)
1.80717412601090e+000	(1.15582179423970e+001dB,1.79984992329991e+002°)
1.81134009261958e+000	(1.15582179402299e+001dB,1.79984957727718e+002°)
1.81551566277311e+000	(1.15582179380490e+001dB,1.79984923045693e+002°)
1.81970085860996e+000	(1.15582179358691e+001dB,1.79984888283731e+002°)
1.82389570231961e+000	(1.15582179336703e+001dB,1.79984853441648e+002°)
1.82810021614272e+000	(1.15582179314620e+001dB,1.79984818519260e+002°)
1.83231442237119e+000	(1.15582179292467e+001dB,1.79984783516381e+002°)
1.83653834334832e+000	(1.15582179270135e+001dB,1.79984748432826e+002°)
1.84077200146893e+000	(1.15582179247783e+001dB,1.79984713268408e+002°)
1.84501541917945e+000	(1.15582179225287e+001dB,1.79984678022942e+002°)
1.84926861897805e+000	(1.15582179202731e+001dB,1.79984642696240e+002°)
1.85353162341479e+000	(1.15582179179935e+001dB,1.79984607288116e+002°)
1.85780445509167e+000	(1.15582179157214e+001dB,1.79984571798380e+002°)
1.86208713666284e+000	(1.15582179134296e+001dB,1.79984536226846e+002°)
1.86637969083464e+000	(1.15582179111338e+001dB,1.79984500573325e+002°)
1.87068214036577e+000	(1.15582179088170e+001dB,1.79984464837628e+002°)
1.87499450806739e+000	(1.15582179064934e+001dB,1.79984429019564e+002°)
1.87931681680324e+000	(1.15582179041631e+001dB,1.79984393118945e+002°)
1.88364908948977e+000	(1.15582179018216e+001dB,1.79984357135580e+002°)
1.88799134909627e+000	(1.15582178994618e+001dB,1.79984321069277e+002°)
1.89234361864495e+000	(1.15582178970956e+001dB,1.79984284919847e+002°)
1.89670592121112e+000	(1.15582178947215e+001dB,1.79984248687097e+002°)
1.90107827992327e+000	(1.15582178923360e+001dB,1.79984212370835e+002°)
1.90546071796322e+000	(1.15582178899357e+001dB,1.79984175970869e+002°)
