Circuit: * C:\Users\---\Desktop\DCE\dce-g5-proyecto_integrador\Checkpoint 5\Buck-compensado\boost_average_CL_noCompensado.asc

Instance "m:u3:_gd_template:_lo_stage:_lo_nmos": Length shorter than recommended for a level 1 MOSFET.
Instance "m:u3:_gd_template:_lo_stage:_lo_pmos": Length shorter than recommended for a level 1 MOSFET.
Instance "m:u3:_gd_template:_ho_stage:_ho_nmos": Length shorter than recommended for a level 1 MOSFET.
Instance "m:u3:_gd_template:_ho_stage:_ho_pmos": Length shorter than recommended for a level 1 MOSFET.
Direct Newton iteration failed to find .op point.  (Use ".option noopiter" to skip.)
Starting Gmin stepping
Increasing initial diagonal Gmin to 100
Increasing initial diagonal Gmin to 1000
Increasing initial diagonal Gmin to 10000
Gmin = 10000
Gmin = 1073.74
Gmin = 115.292
Gmin = 12.3794
Gmin = 1.32923
vernier = 0.5
vernier = 0.25
vernier = 0.125
vernier = 0.0625
vernier = 0.03125
Gmin = 1.00083
vernier = 0.015625
vernier = 0.0078125
vernier = 0.00390625
vernier = 0.00195313
vernier = 0.000976563
vernier = 0.000488281
Gmin = 0
Gmin stepping succeeded in finding the operating point.

Semiconductor Device Operating Points:
                        --- Diodes ---
Name:      d3          d2          d1        d:u2:3      d:u2:2
Model:  d1n5822rl   d1n5822rl   d1n5822rl   u2:dbias    u2:dbias
Id:      1.60e-36   -3.74e-28    1.05e-25   -4.20e-07    2.33e-04
Vd:     -2.82e-30    3.69e-18   -1.85e-19   -3.48e+00    2.33e-01
Req:     1.35e+02    1.35e+02    1.35e+02    1.00e-03    1.00e-03
CAP:     4.82e-10    4.82e-10    4.82e-10    0.00e+00    0.00e+00

Name:    d:u2:6      d:u2:1      d:u2:5      d:u2:4
Model:    u2:y        u2:y        u2:xd       u2:xu
Id:      2.33e-13   -2.33e-13    4.20e-06   -3.71e-11
Vd:      2.33e-01   -2.33e-01    2.29e-01   -3.71e+00
Req:     1.00e-12    1.00e-12    1.00e-03    1.00e-11
CAP:     0.00e+00    0.00e+00    0.00e+00    0.00e+00

                        --- VDMOSFET Transistors ---
Name:          m2          m1        m:u2:2      m:u2:1
Model:       irfz44n     irfz44n      u2:p        u2:n
Id:          1.25e-09    1.25e-09   -2.33e-04    2.33e-04
Vgs:        -5.77e-30    3.46e-31   -2.33e-01   -2.33e-01
Vds:         2.82e-30   -3.69e-18   -3.69e-03    3.48e+00
Vth:         4.00e+00    4.00e+00    2.95e-01   -2.95e-01
Gm:          0.00e+00    0.00e+00    4.43e-04    7.48e-03
Gds:         0.00e+00    0.00e+00    6.29e-02    0.00e+00
Cgs:         1.40e-09    1.40e-09    0.00e+00    0.00e+00
Cgd:         1.25e-09    1.25e-09    0.00e+00    0.00e+00
Cbody:       9.00e-10    9.00e-10    0.00e+00    0.00e+00

                        --- MOSFET Transistors ---
Name:        m:u3:_gd_template:_lo_stage:_lo_nmos     m:u3:_gd_template:_lo_stage:_lo_pmos     m:u3:_gd_template:_ho_stage:_ho_nmos     m:u3:_gd_template:_ho_stage:_ho_pmos
Model:     u3:_gd_template:_lo_stage:ir2104_lo_nmos u3:_gd_template:_lo_stage:ir2104_lo_pmos u3:_gd_template:_ho_stage:ir2104_ho_nmos u3:_gd_template:_ho_stage:ir2104_ho_pmos
Id:                       -3.49e-31                                 3.49e-31                                 2.09e-32                                -2.09e-32
Vgs:                       6.50e+00                                 0.00e+00                                 6.50e+00                                -1.35e-33
Vds:                      -5.77e-30                                 1.74e-19                                 3.46e-31                                -1.05e-20
Vbs:                       0.00e+00                                 0.00e+00                                 0.00e+00                                 0.00e+00
Vth:                       1.00e+00                                -1.00e+00                                 1.00e+00                                -1.00e+00
Vdsat:                     5.50e+00                                -0.00e+00                                 5.50e+00                                -0.00e+00
Gm:                        0.00e+00                                 0.00e+00                                 0.00e+00                                 0.00e+00
Gds:                       6.05e-02                                 0.00e+00                                 6.05e-02                                 0.00e+00
Gmb:                       0.00e+00                                 0.00e+00                                 0.00e+00                                 0.00e+00
Cbd:                       0.00e+00                                 0.00e+00                                 0.00e+00                                 0.00e+00
Cbs:                       0.00e+00                                 0.00e+00                                 0.00e+00                                 0.00e+00
Cgsov:                     1.00e-13                                 1.00e-13                                 1.00e-13                                 1.00e-13
Cgdov:                     0.00e+00                                 0.00e+00                                 0.00e+00                                 0.00e+00
Cgbov:                     0.00e+00                                 0.00e+00                                 0.00e+00                                 0.00e+00
Cgs:                       0.00e+00                                 0.00e+00                                 0.00e+00                                 0.00e+00
Cgd:                       0.00e+00                                 0.00e+00                                 0.00e+00                                 0.00e+00
Cgb:                       0.00e+00                                 0.00e+00                                 0.00e+00                                 0.00e+00


Ignoring empty pin current: Ix(u1:5)
Ignoring empty pin current: Ix(u1:5)

Date: Tue Dec 03 23:00:44 2024
Total elapsed time: 0.437 seconds.

tnom = 27
temp = 27
method = trap
totiter = 1842
traniter = 0
tranpoints = 0
accept = 0
rejected = 0
matrix size = 307
fillins = 270
solver = Normal
Matrix Compiler1:    1267 opcodes
Matrix Compiler2: 24.20 KB object code size  1.7/3.4/[1.2]

