Freq.	V(vf)
1.00000000000000e+000	(5.13775053862867e+001dB,-1.79991820271906e+002°)
1.00230523807790e+000	(5.13775053868943e+001dB,-1.79991848121583e+002°)
1.00461579027840e+000	(5.13775053874991e+001dB,-1.79991875928039e+002°)
1.00693166885180e+000	(5.13775053881008e+001dB,-1.79991903691422e+002°)
1.00925288607668e+000	(5.13775053886996e+001dB,-1.79991931411880e+002°)
1.01157945425990e+000	(5.13775053892954e+001dB,-1.79991959089558e+002°)
1.01391138573668e+000	(5.13775053898887e+001dB,-1.79991986724605e+002°)
1.01624869287070e+000	(5.13775053904788e+001dB,-1.79992014317165e+002°)
1.01859138805412e+000	(5.13775053910662e+001dB,-1.79992041867387e+002°)
1.02093948370768e+000	(5.13775053916508e+001dB,-1.79992069375415e+002°)
1.02329299228075e+000	(5.13775053922325e+001dB,-1.79992096841396e+002°)
1.02565192625141e+000	(5.13775053928113e+001dB,-1.79992124265475e+002°)
1.02801629812647e+000	(5.13775053933875e+001dB,-1.79992151647798e+002°)
1.03038612044162e+000	(5.13775053939609e+001dB,-1.79992178988510e+002°)
1.03276140576140e+000	(5.13775053945316e+001dB,-1.79992206287755e+002°)
1.03514216667934e+000	(5.13775053950992e+001dB,-1.79992233545679e+002°)
1.03752841581801e+000	(5.13775053956643e+001dB,-1.79992260762426e+002°)
1.03992016582906e+000	(5.13775053962268e+001dB,-1.79992287938141e+002°)
1.04231742939330e+000	(5.13775053967864e+001dB,-1.79992315072966e+002°)
1.04472021922080e+000	(5.13775053973433e+001dB,-1.79992342167048e+002°)
1.04712854805090e+000	(5.13775053978977e+001dB,-1.79992369220527e+002°)
1.04954242865232e+000	(5.13775053984492e+001dB,-1.79992396233550e+002°)
1.05196187382322e+000	(5.13775053989980e+001dB,-1.79992423206258e+002°)
1.05438689639126e+000	(5.13775053995440e+001dB,-1.79992450138794e+002°)
1.05681750921366e+000	(5.13775054000877e+001dB,-1.79992477031302e+002°)
1.05925372517729e+000	(5.13775054006287e+001dB,-1.79992503883924e+002°)
1.06169555719872e+000	(5.13775054011670e+001dB,-1.79992530696802e+002°)
1.06414301822431e+000	(5.13775054017024e+001dB,-1.79992557470079e+002°)
1.06659612123026e+000	(5.13775054022357e+001dB,-1.79992584203896e+002°)
1.06905487922266e+000	(5.13775054027661e+001dB,-1.79992610898396e+002°)
1.07151930523761e+000	(5.13775054032940e+001dB,-1.79992637553719e+002°)
1.07398941234124e+000	(5.13775054038194e+001dB,-1.79992664170007e+002°)
1.07646521362983e+000	(5.13775054043421e+001dB,-1.79992690747401e+002°)
1.07894672222983e+000	(5.13775054048621e+001dB,-1.79992717286043e+002°)
1.08143395129794e+000	(5.13775054053798e+001dB,-1.79992743786072e+002°)
1.08392691402120e+000	(5.13775054058949e+001dB,-1.79992770247629e+002°)
1.08642562361706e+000	(5.13775054064075e+001dB,-1.79992796670855e+002°)
1.08893009333343e+000	(5.13775054069177e+001dB,-1.79992823055890e+002°)
1.09144033644876e+000	(5.13775054074253e+001dB,-1.79992849402873e+002°)
1.09395636627209e+000	(5.13775054079305e+001dB,-1.79992875711945e+002°)
1.09647819614318e+000	(5.13775054084332e+001dB,-1.79992901983244e+002°)
1.09900583943252e+000	(5.13775054089335e+001dB,-1.79992928216910e+002°)
1.10153930954141e+000	(5.13775054094311e+001dB,-1.79992954413083e+002°)
1.10407861990207e+000	(5.13775054099265e+001dB,-1.79992980571900e+002°)
1.10662378397766e+000	(5.13775054104192e+001dB,-1.79993006693501e+002°)
1.10917481526240e+000	(5.13775054109097e+001dB,-1.79993032778024e+002°)
1.11173172728159e+000	(5.13775054113978e+001dB,-1.79993058825608e+002°)
1.11429453359173e+000	(5.13775054118832e+001dB,-1.79993084836390e+002°)
1.11686324778056e+000	(5.13775054123666e+001dB,-1.79993110810509e+002°)
1.11943788346715e+000	(5.13775054128475e+001dB,-1.79993136748102e+002°)
1.12201845430196e+000	(5.13775054133260e+001dB,-1.79993162649307e+002°)
1.12460497396692e+000	(5.13775054138022e+001dB,-1.79993188514261e+002°)
1.12719745617551e+000	(5.13775054142758e+001dB,-1.79993214343101e+002°)
1.12979591467280e+000	(5.13775054147473e+001dB,-1.79993240135964e+002°)
1.13240036323556e+000	(5.13775054152164e+001dB,-1.79993265892987e+002°)
1.13501081567231e+000	(5.13775054156833e+001dB,-1.79993291614307e+002°)
1.13762728582343e+000	(5.13775054161477e+001dB,-1.79993317300059e+002°)
1.14024978756117e+000	(5.13775054166100e+001dB,-1.79993342950380e+002°)
1.14287833478977e+000	(5.13775054170700e+001dB,-1.79993368565406e+002°)
1.14551294144553e+000	(5.13775054175276e+001dB,-1.79993394145273e+002°)
1.14815362149688e+000	(5.13775054179828e+001dB,-1.79993419690117e+002°)
1.15080038894443e+000	(5.13775054184358e+001dB,-1.79993445200072e+002°)
1.15345325782109e+000	(5.13775054188867e+001dB,-1.79993470675274e+002°)
1.15611224219210e+000	(5.13775054193354e+001dB,-1.79993496115859e+002°)
1.15877735615512e+000	(5.13775054197817e+001dB,-1.79993521521961e+002°)
1.16144861384034e+000	(5.13775054202258e+001dB,-1.79993546893714e+002°)
1.16412602941049e+000	(5.13775054206677e+001dB,-1.79993572231254e+002°)
1.16680961706096e+000	(5.13775054211076e+001dB,-1.79993597534714e+002°)
1.16949939101987e+000	(5.13775054215451e+001dB,-1.79993622804229e+002°)
1.17219536554813e+000	(5.13775054219805e+001dB,-1.79993648039933e+002°)
1.17489755493953e+000	(5.13775054224135e+001dB,-1.79993673241959e+002°)
1.17760597352080e+000	(5.13775054228445e+001dB,-1.79993698410442e+002°)
1.18032063565173e+000	(5.13775054232734e+001dB,-1.79993723545514e+002°)
1.18304155572516e+000	(5.13775054237002e+001dB,-1.79993748647309e+002°)
1.18576874816716e+000	(5.13775054241246e+001dB,-1.79993773715960e+002°)
1.18850222743702e+000	(5.13775054245472e+001dB,-1.79993798751599e+002°)
1.19124200802737e+000	(5.13775054249674e+001dB,-1.79993823754361e+002°)
1.19398810446427e+000	(5.13775054253858e+001dB,-1.79993848724376e+002°)
1.19674053130724e+000	(5.13775054258017e+001dB,-1.79993873661779e+002°)
1.19949930314938e+000	(5.13775054262157e+001dB,-1.79993898566699e+002°)
1.20226443461741e+000	(5.13775054266277e+001dB,-1.79993923439271e+002°)
1.20503594037179e+000	(5.13775054270375e+001dB,-1.79993948279625e+002°)
1.20781383510678e+000	(5.13775054274453e+001dB,-1.79993973087894e+002°)
1.21059813355048e+000	(5.13775054278511e+001dB,-1.79993997864209e+002°)
1.21338885046497e+000	(5.13775054282546e+001dB,-1.79994022608701e+002°)
1.21618600064636e+000	(5.13775054286563e+001dB,-1.79994047321501e+002°)
1.21898959892486e+000	(5.13775054290558e+001dB,-1.79994072002741e+002°)
1.22179966016487e+000	(5.13775054294533e+001dB,-1.79994096652551e+002°)
1.22461619926504e+000	(5.13775054298490e+001dB,-1.79994121271063e+002°)
1.22743923115840e+000	(5.13775054302423e+001dB,-1.79994145858405e+002°)
1.23026877081238e+000	(5.13775054306339e+001dB,-1.79994170414710e+002°)
1.23310483322890e+000	(5.13775054310235e+001dB,-1.79994194940107e+002°)
1.23594743344451e+000	(5.13775054314109e+001dB,-1.79994219434726e+002°)
1.23879658653036e+000	(5.13775054317966e+001dB,-1.79994243898697e+002°)
1.24165230759241e+000	(5.13775054321802e+001dB,-1.79994268332150e+002°)
1.24451461177138e+000	(5.13775054325618e+001dB,-1.79994292735214e+002°)
1.24738351424294e+000	(5.13775054329416e+001dB,-1.79994317108019e+002°)
1.25025903021771e+000	(5.13775054333193e+001dB,-1.79994341450694e+002°)
1.25314117494141e+000	(5.13775054336951e+001dB,-1.79994365763367e+002°)
1.25602996369487e+000	(5.13775054340690e+001dB,-1.79994390046168e+002°)
1.25892541179416e+000	(5.13775054344410e+001dB,-1.79994414299226e+002°)
1.26182753459066e+000	(5.13775054348112e+001dB,-1.79994438522670e+002°)
1.26473634747115e+000	(5.13775054351792e+001dB,-1.79994462716626e+002°)
1.26765186585784e+000	(5.13775054355455e+001dB,-1.79994486881225e+002°)
1.27057410520854e+000	(5.13775054359099e+001dB,-1.79994511016594e+002°)
1.27350308101666e+000	(5.13775054362724e+001dB,-1.79994535122860e+002°)
1.27643880881134e+000	(5.13775054366331e+001dB,-1.79994559200152e+002°)
1.27938130415752e+000	(5.13775054369919e+001dB,-1.79994583248598e+002°)
1.28233058265602e+000	(5.13775054373487e+001dB,-1.79994607268325e+002°)
1.28528665994361e+000	(5.13775054377037e+001dB,-1.79994631259460e+002°)
1.28824955169313e+000	(5.13775054380570e+001dB,-1.79994655222130e+002°)
1.29121927361353e+000	(5.13775054384085e+001dB,-1.79994679156463e+002°)
1.29419584144998e+000	(5.13775054387581e+001dB,-1.79994703062586e+002°)
1.29717927098395e+000	(5.13775054391057e+001dB,-1.79994726940624e+002°)
1.30016957803328e+000	(5.13775054394516e+001dB,-1.79994750790706e+002°)
1.30316677845229e+000	(5.13775054397958e+001dB,-1.79994774612956e+002°)
1.30617088813183e+000	(5.13775054401381e+001dB,-1.79994798407502e+002°)
1.30918192299940e+000	(5.13775054404787e+001dB,-1.79994822174470e+002°)
1.31219989901920e+000	(5.13775054408173e+001dB,-1.79994845913985e+002°)
1.31522483219223e+000	(5.13775054411542e+001dB,-1.79994869626174e+002°)
1.31825673855640e+000	(5.13775054414893e+001dB,-1.79994893311162e+002°)
1.32129563418657e+000	(5.13775054418229e+001dB,-1.79994916969076e+002°)
1.32434153519466e+000	(5.13775054421545e+001dB,-1.79994940600039e+002°)
1.32739445772973e+000	(5.13775054424845e+001dB,-1.79994964204178e+002°)
1.33045441797808e+000	(5.13775054428127e+001dB,-1.79994987781617e+002°)
1.33352143216332e+000	(5.13775054431392e+001dB,-1.79995011332483e+002°)
1.33659551654643e+000	(5.13775054434638e+001dB,-1.79995034856899e+002°)
1.33967668742593e+000	(5.13775054437869e+001dB,-1.79995058354990e+002°)
1.34276496113786e+000	(5.13775054441082e+001dB,-1.79995081826881e+002°)
1.34586035405594e+000	(5.13775054444277e+001dB,-1.79995105272697e+002°)
1.34896288259164e+000	(5.13775054447455e+001dB,-1.79995128692561e+002°)
1.35207256319427e+000	(5.13775054450618e+001dB,-1.79995152086598e+002°)
1.35518941235103e+000	(5.13775054453764e+001dB,-1.79995175454931e+002°)
1.35831344658715e+000	(5.13775054456892e+001dB,-1.79995198797686e+002°)
1.36144468246594e+000	(5.13775054460003e+001dB,-1.79995222114985e+002°)
1.36458313658892e+000	(5.13775054463098e+001dB,-1.79995245406952e+002°)
1.36772882559584e+000	(5.13775054466177e+001dB,-1.79995268673711e+002°)
1.37088176616484e+000	(5.13775054469239e+001dB,-1.79995291915385e+002°)
1.37404197501251e+000	(5.13775054472284e+001dB,-1.79995315132097e+002°)
1.37720946889394e+000	(5.13775054475312e+001dB,-1.79995338323970e+002°)
1.38038426460288e+000	(5.13775054478325e+001dB,-1.79995361491128e+002°)
1.38356637897177e+000	(5.13775054481323e+001dB,-1.79995384633692e+002°)
1.38675582887188e+000	(5.13775054484302e+001dB,-1.79995407751787e+002°)
1.38995263121334e+000	(5.13775054487265e+001dB,-1.79995430845533e+002°)
1.39315680294529e+000	(5.13775054490213e+001dB,-1.79995453915055e+002°)
1.39636836105593e+000	(5.13775054493145e+001dB,-1.79995476960474e+002°)
1.39958732257261e+000	(5.13775054496061e+001dB,-1.79995499981912e+002°)
1.40281370456195e+000	(5.13775054498960e+001dB,-1.79995522979491e+002°)
1.40604752412990e+000	(5.13775054501844e+001dB,-1.79995545953334e+002°)
1.40928879842186e+000	(5.13775054504713e+001dB,-1.79995568903561e+002°)
1.41253754462274e+000	(5.13775054507569e+001dB,-1.79995591830296e+002°)
1.41579377995707e+000	(5.13775054510403e+001dB,-1.79995614733658e+002°)
1.41905752168908e+000	(5.13775054512588e+001dB,-1.79995637613771e+002°)
1.42232878712281e+000	(5.13775054515394e+001dB,-1.79995660470755e+002°)
1.42560759360218e+000	(5.13775054518185e+001dB,-1.79995683304730e+002°)
1.42889395851109e+000	(5.13775054520960e+001dB,-1.79995706115820e+002°)
1.43218789927353e+000	(5.13775054523720e+001dB,-1.79995728904143e+002°)
1.43548943335364e+000	(5.13775054526464e+001dB,-1.79995751669822e+002°)
1.43879857825583e+000	(5.13775054529192e+001dB,-1.79995774412976e+002°)
1.44211535152486e+000	(5.13775054531907e+001dB,-1.79995797133727e+002°)
1.44543977074592e+000	(5.13775054534606e+001dB,-1.79995819832194e+002°)
1.44877185354475e+000	(5.13775054537288e+001dB,-1.79995842508499e+002°)
1.45211161758773e+000	(5.13775054539959e+001dB,-1.79995865162761e+002°)
1.45545908058195e+000	(5.13775054542612e+001dB,-1.79995887795100e+002°)
1.45881426027534e+000	(5.13775054545251e+001dB,-1.79995910405637e+002°)
1.46217717445671e+000	(5.13775054547876e+001dB,-1.79995932994492e+002°)
1.46554784095590e+000	(5.13775054550482e+001dB,-1.79995955561783e+002°)
1.46892627764385e+000	(5.13775054553078e+001dB,-1.79995978107632e+002°)
1.47231250243271e+000	(5.13775054555659e+001dB,-1.79996000632156e+002°)
1.47570653327588e+000	(5.13775054558224e+001dB,-1.79996023135477e+002°)
1.47910838816819e+000	(5.13775054560775e+001dB,-1.79996045617712e+002°)
1.48251808514594e+000	(5.13775054563311e+001dB,-1.79996068078982e+002°)
1.48593564228699e+000	(5.13775054565831e+001dB,-1.79996090519405e+002°)
1.48936107771090e+000	(5.13775054568339e+001dB,-1.79996112939101e+002°)
1.49279440957898e+000	(5.13775054570835e+001dB,-1.79996135338187e+002°)
1.49623565609442e+000	(5.13775054573311e+001dB,-1.79996157716784e+002°)
1.49968483550236e+000	(5.13775054575775e+001dB,-1.79996180075009e+002°)
1.50314196609001e+000	(5.13775054578227e+001dB,-1.79996202412981e+002°)
1.50660706618673e+000	(5.13775054580662e+001dB,-1.79996224730819e+002°)
1.51008015416413e+000	(5.13775054583084e+001dB,-1.79996247028641e+002°)
1.51356124843619e+000	(5.13775054585491e+001dB,-1.79996269306565e+002°)
1.51705036745932e+000	(5.13775054587885e+001dB,-1.79996291564709e+002°)
1.52054752973248e+000	(5.13775054590266e+001dB,-1.79996313803191e+002°)
1.52405275379728e+000	(5.13775054592631e+001dB,-1.79996336022130e+002°)
1.52756605823806e+000	(5.13775054594985e+001dB,-1.79996358221642e+002°)
1.53108746168202e+000	(5.13775054597323e+001dB,-1.79996380401846e+002°)
1.53461698279928e+000	(5.13775054599649e+001dB,-1.79996402562860e+002°)
1.53815464030302e+000	(5.13775054601959e+001dB,-1.79996424704800e+002°)
1.54170045294954e+000	(5.13775054604256e+001dB,-1.79996446827784e+002°)
1.54525443953840e+000	(5.13775054606539e+001dB,-1.79996468931930e+002°)
1.54881661891247e+000	(5.13775054608810e+001dB,-1.79996491017354e+002°)
1.55238700995807e+000	(5.13775054611067e+001dB,-1.79996513084174e+002°)
1.55596563160506e+000	(5.13775054613310e+001dB,-1.79996535132507e+002°)
1.55955250282694e+000	(5.13775054615539e+001dB,-1.79996557162470e+002°)
1.56314764264094e+000	(5.13775054617757e+001dB,-1.79996579174178e+002°)
1.56675107010813e+000	(5.13775054619959e+001dB,-1.79996601167750e+002°)
1.57036280433354e+000	(5.13775054622151e+001dB,-1.79996623143302e+002°)
1.57398286446620e+000	(5.13775054624326e+001dB,-1.79996645100950e+002°)
1.57761126969933e+000	(5.13775054626490e+001dB,-1.79996667040811e+002°)
1.58124803927037e+000	(5.13775054628641e+001dB,-1.79996688963000e+002°)
1.58489319246110e+000	(5.13775054630778e+001dB,-1.79996710867635e+002°)
1.58854674859776e+000	(5.13775054632904e+001dB,-1.79996732754831e+002°)
1.59220872705115e+000	(5.13775054635014e+001dB,-1.79996754624705e+002°)
1.59587914723672e+000	(5.13775054637112e+001dB,-1.79996776477372e+002°)
1.59955802861465e+000	(5.13775054639200e+001dB,-1.79996798312948e+002°)
1.60324539069002e+000	(5.13775054641272e+001dB,-1.79996820131549e+002°)
1.60694125301286e+000	(5.13775054643332e+001dB,-1.79996841933290e+002°)
1.61064563517825e+000	(5.13775054645378e+001dB,-1.79996863718288e+002°)
1.61435855682647e+000	(5.13775054647413e+001dB,-1.79996885486658e+002°)
1.61808003764305e+000	(5.13775054649435e+001dB,-1.79996907238515e+002°)
1.62181009735891e+000	(5.13775054651445e+001dB,-1.79996928973974e+002°)
1.62554875575047e+000	(5.13775054653440e+001dB,-1.79996950693151e+002°)
1.62929603263970e+000	(5.13775054655425e+001dB,-1.79996972396161e+002°)
1.63305194789432e+000	(5.13775054657397e+001dB,-1.79996994083119e+002°)
1.63681652142779e+000	(5.13775054659355e+001dB,-1.79997015754140e+002°)
1.64058977319952e+000	(5.13775054661303e+001dB,-1.79997037409339e+002°)
1.64437172321491e+000	(5.13775054663238e+001dB,-1.79997059048830e+002°)
1.64816239152549e+000	(5.13775054665157e+001dB,-1.79997080672729e+002°)
1.65196179822900e+000	(5.13775054667068e+001dB,-1.79997102281149e+002°)
1.65576996346951e+000	(5.13775054668965e+001dB,-1.79997123874207e+002°)
1.65958690743754e+000	(5.13775054670850e+001dB,-1.79997145452015e+002°)
1.66341265037015e+000	(5.13775054672724e+001dB,-1.79997167014689e+002°)
1.66724721255104e+000	(5.13775054674584e+001dB,-1.79997188562342e+002°)
1.67109061431069e+000	(5.13775054676433e+001dB,-1.79997210095090e+002°)
1.67494287602642e+000	(5.13775054678272e+001dB,-1.79997231613046e+002°)
1.67880401812254e+000	(5.13775054680094e+001dB,-1.79997253116324e+002°)
1.68267406107045e+000	(5.13775054681908e+001dB,-1.79997274605038e+002°)
1.68655302538872e+000	(5.13775054683708e+001dB,-1.79997296079303e+002°)
1.69044093164324e+000	(5.13775054685497e+001dB,-1.79997317539232e+002°)
1.69433780044731e+000	(5.13775054687274e+001dB,-1.79997338984938e+002°)
1.69824365246172e+000	(5.13775054689040e+001dB,-1.79997360416537e+002°)
1.70215850839493e+000	(5.13775054690793e+001dB,-1.79997381834140e+002°)
1.70608238900310e+000	(5.13775054692533e+001dB,-1.79997403237862e+002°)
1.71001531509027e+000	(5.13775054694264e+001dB,-1.79997424627816e+002°)
1.71395730750840e+000	(5.13775054695982e+001dB,-1.79997446004116e+002°)
1.71790838715757e+000	(5.13775054697688e+001dB,-1.79997467366875e+002°)
1.72186857498599e+000	(5.13775054699383e+001dB,-1.79997488716206e+002°)
1.72583789199018e+000	(5.13775054701067e+001dB,-1.79997510052223e+002°)
1.72981635921508e+000	(5.13775054702739e+001dB,-1.79997531375038e+002°)
1.73380399775412e+000	(5.13775054704398e+001dB,-1.79997552684765e+002°)
1.73780082874935e+000	(5.13775054706049e+001dB,-1.79997573981516e+002°)
1.74180687339159e+000	(5.13775054707687e+001dB,-1.79997595265405e+002°)
1.74582215292048e+000	(5.13775054709312e+001dB,-1.79997616536544e+002°)
1.74984668862464e+000	(5.13775054710927e+001dB,-1.79997637795046e+002°)
1.75388050184174e+000	(5.13775054712529e+001dB,-1.79997659041024e+002°)
1.75792361395867e+000	(5.13775054714121e+001dB,-1.79997680274591e+002°)
1.76197604641161e+000	(5.13775054715703e+001dB,-1.79997701495859e+002°)
1.76603782068614e+000	(5.13775054717271e+001dB,-1.79997722704940e+002°)
1.77010895831740e+000	(5.13775054718831e+001dB,-1.79997743901947e+002°)
1.77418948089014e+000	(5.13775054720380e+001dB,-1.79997765086992e+002°)
1.77827941003890e+000	(5.13775054721916e+001dB,-1.79997786260189e+002°)
1.78237876744807e+000	(5.13775054723440e+001dB,-1.79997807421648e+002°)
1.78648757485203e+000	(5.13775054724954e+001dB,-1.79997828571482e+002°)
1.79060585403527e+000	(5.13775054726458e+001dB,-1.79997849709804e+002°)
1.79473362683250e+000	(5.13775054727949e+001dB,-1.79997870836725e+002°)
1.79887091512876e+000	(5.13775054729431e+001dB,-1.79997891952358e+002°)
1.80301774085955e+000	(5.13775054730901e+001dB,-1.79997913056813e+002°)
1.80717412601090e+000	(5.13775054732359e+001dB,-1.79997934150205e+002°)
1.81134009261958e+000	(5.13775054733809e+001dB,-1.79997955232643e+002°)
1.81551566277311e+000	(5.13775054735247e+001dB,-1.79997976304240e+002°)
1.81970085860996e+000	(5.13775054736672e+001dB,-1.79997997365107e+002°)
1.82389570231961e+000	(5.13775054738089e+001dB,-1.79998018415357e+002°)
1.82810021614272e+000	(5.13775054739493e+001dB,-1.79998039455101e+002°)
1.83231442237119e+000	(5.13775054740887e+001dB,-1.79998060484450e+002°)
1.83653834334832e+000	(5.13775054742272e+001dB,-1.79998081503515e+002°)
1.84077200146893e+000	(5.13775054743644e+001dB,-1.79998102512410e+002°)
1.84501541917945e+000	(5.13775054745006e+001dB,-1.79998123511244e+002°)
1.84926861897805e+000	(5.13775054746356e+001dB,-1.79998144500129e+002°)
1.85353162341479e+000	(5.13775054747698e+001dB,-1.79998165479176e+002°)
1.85780445509167e+000	(5.13775054749028e+001dB,-1.79998186448497e+002°)
1.86208713666284e+000	(5.13775054750349e+001dB,-1.79998207408202e+002°)
1.86637969083464e+000	(5.13775054751659e+001dB,-1.79998228358404e+002°)
1.87068214036577e+000	(5.13775054752958e+001dB,-1.79998249299212e+002°)
1.87499450806739e+000	(5.13775054754247e+001dB,-1.79998270230738e+002°)
1.87931681680324e+000	(5.13775054755524e+001dB,-1.79998291153094e+002°)
1.88364908948977e+000	(5.13775054756794e+001dB,-1.79998312066389e+002°)
1.88799134909627e+000	(5.13775054758051e+001dB,-1.79998332970735e+002°)
