Freq.	V(vf)
1.00000000000000e+000	(5.32396286874034e+001dB,-1.79991958317182e+002°)
1.00230523807790e+000	(5.32396286880102e+001dB,-1.79991986461089e+002°)
1.00461579027840e+000	(5.32396286886142e+001dB,-1.79992014562509e+002°)
1.00693166885180e+000	(5.32396286892154e+001dB,-1.79992042621592e+002°)
1.00925288607668e+000	(5.32396286898137e+001dB,-1.79992070638485e+002°)
1.01157945425990e+000	(5.32396286904091e+001dB,-1.79992098613338e+002°)
1.01391138573668e+000	(5.32396286910015e+001dB,-1.79992126546298e+002°)
1.01624869287070e+000	(5.32396286915912e+001dB,-1.79992154437514e+002°)
1.01859138805412e+000	(5.32396286921779e+001dB,-1.79992182287133e+002°)
1.02093948370768e+000	(5.32396286927618e+001dB,-1.79992210095304e+002°)
1.02329299228075e+000	(5.32396286933431e+001dB,-1.79992237862173e+002°)
1.02565192625141e+000	(5.32396286939213e+001dB,-1.79992265587889e+002°)
1.02801629812647e+000	(5.32396286944967e+001dB,-1.79992293272597e+002°)
1.03038612044162e+000	(5.32396286950695e+001dB,-1.79992320916445e+002°)
1.03276140576140e+000	(5.32396286956394e+001dB,-1.79992348519579e+002°)
1.03514216667934e+000	(5.32396286962068e+001dB,-1.79992376082146e+002°)
1.03752841581801e+000	(5.32396286967712e+001dB,-1.79992403604292e+002°)
1.03992016582906e+000	(5.32396286973329e+001dB,-1.79992431086162e+002°)
1.04231742939330e+000	(5.32396286978917e+001dB,-1.79992458527903e+002°)
1.04472021922080e+000	(5.32396286984482e+001dB,-1.79992485929660e+002°)
1.04712854805090e+000	(5.32396286990019e+001dB,-1.79992513291577e+002°)
1.04954242865232e+000	(5.32396286995527e+001dB,-1.79992540613801e+002°)
1.05196187382322e+000	(5.32396287001009e+001dB,-1.79992567896476e+002°)
1.05438689639126e+000	(5.32396287006464e+001dB,-1.79992595139747e+002°)
1.05681750921366e+000	(5.32396287011893e+001dB,-1.79992622343758e+002°)
1.05925372517729e+000	(5.32396287017296e+001dB,-1.79992649508653e+002°)
1.06169555719872e+000	(5.32396287022672e+001dB,-1.79992676634577e+002°)
1.06414301822431e+000	(5.32396287028022e+001dB,-1.79992703721673e+002°)
1.06659612123026e+000	(5.32396287033346e+001dB,-1.79992730770085e+002°)
1.06905487922266e+000	(5.32396287038644e+001dB,-1.79992757779956e+002°)
1.07151930523761e+000	(5.32396287043917e+001dB,-1.79992784751430e+002°)
1.07398941234124e+000	(5.32396287049164e+001dB,-1.79992811684649e+002°)
1.07646521362983e+000	(5.32396287054385e+001dB,-1.79992838579756e+002°)
1.07894672222983e+000	(5.32396287059579e+001dB,-1.79992865436894e+002°)
1.08143395129794e+000	(5.32396287064750e+001dB,-1.79992892256206e+002°)
1.08392691402120e+000	(5.32396287069894e+001dB,-1.79992919037833e+002°)
1.08642562361706e+000	(5.32396287075013e+001dB,-1.79992945781917e+002°)
1.08893009333343e+000	(5.32396287080108e+001dB,-1.79992972488601e+002°)
1.09144033644876e+000	(5.32396287085177e+001dB,-1.79992999158025e+002°)
1.09395636627209e+000	(5.32396287090222e+001dB,-1.79993025790332e+002°)
1.09647819614318e+000	(5.32396287095241e+001dB,-1.79993052385662e+002°)
1.09900583943252e+000	(5.32396287100236e+001dB,-1.79993078944157e+002°)
1.10153930954141e+000	(5.32396287105208e+001dB,-1.79993105465956e+002°)
1.10407861990207e+000	(5.32396287110154e+001dB,-1.79993131951202e+002°)
1.10662378397766e+000	(5.32396287115075e+001dB,-1.79993158400034e+002°)
1.10917481526240e+000	(5.32396287119971e+001dB,-1.79993184812593e+002°)
1.11173172728159e+000	(5.32396287124846e+001dB,-1.79993211189018e+002°)
1.11429453359173e+000	(5.32396287129696e+001dB,-1.79993237529449e+002°)
1.11686324778056e+000	(5.32396287134521e+001dB,-1.79993263834027e+002°)
1.11943788346715e+000	(5.32396287139323e+001dB,-1.79993290102890e+002°)
1.12201845430196e+000	(5.32396287144101e+001dB,-1.79993316336178e+002°)
1.12460497396692e+000	(5.32396287148855e+001dB,-1.79993342534030e+002°)
1.12719745617551e+000	(5.32396287153585e+001dB,-1.79993368696584e+002°)
1.12979591467280e+000	(5.32396287158292e+001dB,-1.79993394823980e+002°)
1.13240036323556e+000	(5.32396287162976e+001dB,-1.79993420916356e+002°)
1.13501081567231e+000	(5.32396287167638e+001dB,-1.79993446973851e+002°)
1.13762728582343e+000	(5.32396287172275e+001dB,-1.79993472996601e+002°)
1.14024978756117e+000	(5.32396287176890e+001dB,-1.79993498984747e+002°)
1.14287833478977e+000	(5.32396287181482e+001dB,-1.79993524938424e+002°)
1.14551294144553e+000	(5.32396287186051e+001dB,-1.79993550857772e+002°)
1.14815362149688e+000	(5.32396287190597e+001dB,-1.79993576742927e+002°)
1.15080038894443e+000	(5.32396287195120e+001dB,-1.79993602594026e+002°)
1.15345325782109e+000	(5.32396287199622e+001dB,-1.79993628411207e+002°)
1.15611224219210e+000	(5.32396287204099e+001dB,-1.79993654194606e+002°)
1.15877735615512e+000	(5.32396287208556e+001dB,-1.79993679944361e+002°)
1.16144861384034e+000	(5.32396287212991e+001dB,-1.79993705660607e+002°)
1.16412602941049e+000	(5.32396287217402e+001dB,-1.79993731343482e+002°)
1.16680961706096e+000	(5.32396287221791e+001dB,-1.79993756993120e+002°)
1.16949939101987e+000	(5.32396287226159e+001dB,-1.79993782609659e+002°)
1.17219536554813e+000	(5.32396287230505e+001dB,-1.79993808193234e+002°)
1.17489755493953e+000	(5.32396287234829e+001dB,-1.79993833743980e+002°)
1.17760597352080e+000	(5.32396287239131e+001dB,-1.79993859262034e+002°)
1.18032063565173e+000	(5.32396287243412e+001dB,-1.79993884747530e+002°)
1.18304155572516e+000	(5.32396287247672e+001dB,-1.79993910200603e+002°)
1.18576874816716e+000	(5.32396287251910e+001dB,-1.79993935621389e+002°)
1.18850222743702e+000	(5.32396287256127e+001dB,-1.79993961010022e+002°)
1.19124200802737e+000	(5.32396287260322e+001dB,-1.79993986366638e+002°)
1.19398810446427e+000	(5.32396287264495e+001dB,-1.79994011691369e+002°)
1.19674053130724e+000	(5.32396287268648e+001dB,-1.79994036984351e+002°)
1.19949930314938e+000	(5.32396287272780e+001dB,-1.79994062245718e+002°)
1.20226443461741e+000	(5.32396287276892e+001dB,-1.79994087475603e+002°)
1.20503594037179e+000	(5.32396287280982e+001dB,-1.79994112674141e+002°)
1.20781383510678e+000	(5.32396287285051e+001dB,-1.79994137841465e+002°)
1.21059813355048e+000	(5.32396287289101e+001dB,-1.79994162977708e+002°)
1.21338885046497e+000	(5.32396287293128e+001dB,-1.79994188083004e+002°)
1.21618600064636e+000	(5.32396287297137e+001dB,-1.79994213157485e+002°)
1.21898959892486e+000	(5.32396287301124e+001dB,-1.79994238201286e+002°)
1.22179966016487e+000	(5.32396287305093e+001dB,-1.79994263214538e+002°)
1.22461619926504e+000	(5.32396287309040e+001dB,-1.79994288197374e+002°)
1.22743923115840e+000	(5.32396287312967e+001dB,-1.79994313149926e+002°)
1.23026877081238e+000	(5.32396287316875e+001dB,-1.79994338072328e+002°)
1.23310483322890e+000	(5.32396287320763e+001dB,-1.79994362964710e+002°)
1.23594743344451e+000	(5.32396287324629e+001dB,-1.79994387827206e+002°)
1.23879658653036e+000	(5.32396287328476e+001dB,-1.79994412659946e+002°)
1.24165230759241e+000	(5.32396287332304e+001dB,-1.79994437463063e+002°)
1.24451461177138e+000	(5.32396287336112e+001dB,-1.79994462236688e+002°)
1.24738351424294e+000	(5.32396287339901e+001dB,-1.79994486980952e+002°)
1.25025903021771e+000	(5.32396287343670e+001dB,-1.79994511695987e+002°)
1.25314117494141e+000	(5.32396287347420e+001dB,-1.79994536381923e+002°)
1.25602996369487e+000	(5.32396287351150e+001dB,-1.79994561038892e+002°)
1.25892541179416e+000	(5.32396287354861e+001dB,-1.79994585667024e+002°)
1.26182753459066e+000	(5.32396287358552e+001dB,-1.79994610266449e+002°)
1.26473634747115e+000	(5.32396287362226e+001dB,-1.79994634837299e+002°)
1.26765186585784e+000	(5.32396287365880e+001dB,-1.79994659379703e+002°)
1.27057410520854e+000	(5.32396287369514e+001dB,-1.79994683893792e+002°)
1.27350308101666e+000	(5.32396287373131e+001dB,-1.79994708379695e+002°)
1.27643880881134e+000	(5.32396287376727e+001dB,-1.79994732837543e+002°)
1.27938130415752e+000	(5.32396287380306e+001dB,-1.79994757267465e+002°)
1.28233058265602e+000	(5.32396287383867e+001dB,-1.79994781669590e+002°)
1.28528665994361e+000	(5.32396287387410e+001dB,-1.79994806044048e+002°)
1.28824955169313e+000	(5.32396287390933e+001dB,-1.79994830390969e+002°)
1.29121927361353e+000	(5.32396287394437e+001dB,-1.79994854710480e+002°)
1.29419584144998e+000	(5.32396287397923e+001dB,-1.79994879002712e+002°)
1.29717927098395e+000	(5.32396287401392e+001dB,-1.79994903267793e+002°)
1.30016957803328e+000	(5.32396287404842e+001dB,-1.79994927505851e+002°)
1.30316677845229e+000	(5.32396287408273e+001dB,-1.79994951717016e+002°)
1.30617088813183e+000	(5.32396287411687e+001dB,-1.79994975901415e+002°)
1.30918192299940e+000	(5.32396287415083e+001dB,-1.79995000059177e+002°)
1.31219989901920e+000	(5.32396287418460e+001dB,-1.79995024190430e+002°)
1.31522483219223e+000	(5.32396287421821e+001dB,-1.79995048295301e+002°)
1.31825673855640e+000	(5.32396287425164e+001dB,-1.79995072373919e+002°)
1.32129563418657e+000	(5.32396287428491e+001dB,-1.79995096426411e+002°)
1.32434153519466e+000	(5.32396287431795e+001dB,-1.79995120452905e+002°)
1.32739445772973e+000	(5.32396287435088e+001dB,-1.79995144453528e+002°)
1.33045441797808e+000	(5.32396287438359e+001dB,-1.79995168428407e+002°)
1.33352143216332e+000	(5.32396287440828e+001dB,-1.79995192377670e+002°)
1.33659551654643e+000	(5.32396287444065e+001dB,-1.79995216301444e+002°)
1.33967668742593e+000	(5.32396287447285e+001dB,-1.79995240199854e+002°)
1.34276496113786e+000	(5.32396287450489e+001dB,-1.79995264073029e+002°)
1.34586035405594e+000	(5.32396287453675e+001dB,-1.79995287921094e+002°)
1.34896288259164e+000	(5.32396287456844e+001dB,-1.79995311744177e+002°)
1.35207256319427e+000	(5.32396287459997e+001dB,-1.79995335542402e+002°)
1.35518941235103e+000	(5.32396287463132e+001dB,-1.79995359315897e+002°)
1.35831344658715e+000	(5.32396287466251e+001dB,-1.79995383064788e+002°)
1.36144468246594e+000	(5.32396287469353e+001dB,-1.79995406789200e+002°)
1.36458313658892e+000	(5.32396287472437e+001dB,-1.79995430489260e+002°)
1.36772882559584e+000	(5.32396287475506e+001dB,-1.79995454165092e+002°)
1.37088176616484e+000	(5.32396287478557e+001dB,-1.79995477816823e+002°)
1.37404197501251e+000	(5.32396287481593e+001dB,-1.79995501444577e+002°)
1.37720946889394e+000	(5.32396287484611e+001dB,-1.79995525048481e+002°)
1.38038426460288e+000	(5.32396287487614e+001dB,-1.79995548628659e+002°)
1.38356637897177e+000	(5.32396287490599e+001dB,-1.79995572185236e+002°)
1.38675582887188e+000	(5.32396287493569e+001dB,-1.79995595718338e+002°)
1.38995263121334e+000	(5.32396287496522e+001dB,-1.79995619228088e+002°)
1.39315680294529e+000	(5.32396287499462e+001dB,-1.79995642714612e+002°)
1.39636836105593e+000	(5.32396287502381e+001dB,-1.79995666178034e+002°)
1.39958732257261e+000	(5.32396287505288e+001dB,-1.79995689618479e+002°)
1.40281370456195e+000	(5.32396287508177e+001dB,-1.79995713036070e+002°)
1.40604752412990e+000	(5.32396287511052e+001dB,-1.79995736430933e+002°)
1.40928879842186e+000	(5.32396287513908e+001dB,-1.79995759803190e+002°)
1.41253754462274e+000	(5.32396287516751e+001dB,-1.79995783152966e+002°)
1.41579377995707e+000	(5.32396287519577e+001dB,-1.79995806480385e+002°)
1.41905752168908e+000	(5.32396287522388e+001dB,-1.79995829785570e+002°)
1.42232878712281e+000	(5.32396287525183e+001dB,-1.79995853068645e+002°)
1.42560759360218e+000	(5.32396287527963e+001dB,-1.79995876329734e+002°)
1.42889395851109e+000	(5.32396287530727e+001dB,-1.79995899568959e+002°)
1.43218789927353e+000	(5.32396287533475e+001dB,-1.79995922786444e+002°)
1.43548943335364e+000	(5.32396287536208e+001dB,-1.79995945982313e+002°)
1.43879857825583e+000	(5.32396287538927e+001dB,-1.79995969156687e+002°)
1.44211535152486e+000	(5.32396287541629e+001dB,-1.79995992309690e+002°)
1.44543977074592e+000	(5.32396287544317e+001dB,-1.79996015441445e+002°)
1.44877185354475e+000	(5.32396287546990e+001dB,-1.79996038552074e+002°)
1.45211161758773e+000	(5.32396287549648e+001dB,-1.79996061641700e+002°)
1.45545908058195e+000	(5.32396287552290e+001dB,-1.79996084710445e+002°)
1.45881426027534e+000	(5.32396287554917e+001dB,-1.79996107758431e+002°)
1.46217717445671e+000	(5.32396287557532e+001dB,-1.79996130785782e+002°)
1.46554784095590e+000	(5.32396287560130e+001dB,-1.79996153792618e+002°)
1.46892627764385e+000	(5.32396287562711e+001dB,-1.79996176779062e+002°)
1.47231250243271e+000	(5.32396287565280e+001dB,-1.79996199745235e+002°)
1.47570653327588e+000	(5.32396287567833e+001dB,-1.79996222691260e+002°)
1.47910838816819e+000	(5.32396287570373e+001dB,-1.79996245617258e+002°)
1.48251808514594e+000	(5.32396287572897e+001dB,-1.79996268523351e+002°)
1.48593564228699e+000	(5.32396287575407e+001dB,-1.79996291409660e+002°)
1.48936107771090e+000	(5.32396287577903e+001dB,-1.79996314276306e+002°)
1.49279440957898e+000	(5.32396287580384e+001dB,-1.79996337123411e+002°)
1.49623565609442e+000	(5.32396287582851e+001dB,-1.79996359951095e+002°)
1.49968483550236e+000	(5.32396287585304e+001dB,-1.79996382759481e+002°)
1.50314196609001e+000	(5.32396287587742e+001dB,-1.79996405548688e+002°)
1.50660706618673e+000	(5.32396287590166e+001dB,-1.79996428318838e+002°)
1.51008015416413e+000	(5.32396287592577e+001dB,-1.79996451070051e+002°)
1.51356124843619e+000	(5.32396287594972e+001dB,-1.79996473802448e+002°)
1.51705036745932e+000	(5.32396287597355e+001dB,-1.79996496516150e+002°)
1.52054752973248e+000	(5.32396287599720e+001dB,-1.79996519211276e+002°)
1.52405275379728e+000	(5.32396287602076e+001dB,-1.79996541887948e+002°)
1.52756605823806e+000	(5.32396287604417e+001dB,-1.79996564546285e+002°)
1.53108746168202e+000	(5.32396287606743e+001dB,-1.79996587186407e+002°)
1.53461698279928e+000	(5.32396287609055e+001dB,-1.79996609808435e+002°)
1.53815464030302e+000	(5.32396287611354e+001dB,-1.79996632412489e+002°)
1.54170045294954e+000	(5.32396287613638e+001dB,-1.79996654998688e+002°)
1.54525443953840e+000	(5.32396287615909e+001dB,-1.79996677567153e+002°)
1.54881661891247e+000	(5.32396287618166e+001dB,-1.79996700118002e+002°)
1.55238700995807e+000	(5.32396287620410e+001dB,-1.79996722651355e+002°)
1.55596563160506e+000	(5.32396287622641e+001dB,-1.79996745167332e+002°)
1.55955250282694e+000	(5.32396287624860e+001dB,-1.79996767666053e+002°)
1.56314764264094e+000	(5.32396287627063e+001dB,-1.79996790147636e+002°)
1.56675107010813e+000	(5.32396287629254e+001dB,-1.79996812612200e+002°)
1.57036280433354e+000	(5.32396287631431e+001dB,-1.79996835059866e+002°)
1.57398286446620e+000	(5.32396287633594e+001dB,-1.79996857490751e+002°)
1.57761126969933e+000	(5.32396287635744e+001dB,-1.79996879904975e+002°)
1.58124803927037e+000	(5.32396287637881e+001dB,-1.79996902302656e+002°)
1.58489319246110e+000	(5.32396287640007e+001dB,-1.79996924683914e+002°)
1.58854674859776e+000	(5.32396287642117e+001dB,-1.79996947048867e+002°)
1.59220872705115e+000	(5.32396287644216e+001dB,-1.79996969397633e+002°)
1.59587914723672e+000	(5.32396287646302e+001dB,-1.79996991730332e+002°)
1.59955802861465e+000	(5.32396287648374e+001dB,-1.79997014047081e+002°)
1.60324539069002e+000	(5.32396287650433e+001dB,-1.79997036347998e+002°)
1.60694125301286e+000	(5.32396287652480e+001dB,-1.79997058633203e+002°)
1.61064563517825e+000	(5.32396287654512e+001dB,-1.79997080902813e+002°)
1.61435855682647e+000	(5.32396287656535e+001dB,-1.79997103156946e+002°)
1.61808003764305e+000	(5.32396287658543e+001dB,-1.79997125395720e+002°)
1.62181009735891e+000	(5.32396287660538e+001dB,-1.79997147619254e+002°)
1.62554875575047e+000	(5.32396287662521e+001dB,-1.79997169827664e+002°)
1.62929603263970e+000	(5.32396287664491e+001dB,-1.79997192021069e+002°)
1.63305194789432e+000	(5.32396287666448e+001dB,-1.79997214199586e+002°)
1.63681652142779e+000	(5.32396287668393e+001dB,-1.79997236363334e+002°)
1.64058977319952e+000	(5.32396287670327e+001dB,-1.79997258512429e+002°)
1.64437172321491e+000	(5.32396287672245e+001dB,-1.79997280646989e+002°)
1.64816239152549e+000	(5.32396287674154e+001dB,-1.79997302767131e+002°)
1.65196179822900e+000	(5.32396287676050e+001dB,-1.79997324872972e+002°)
1.65576996346951e+000	(5.32396287677933e+001dB,-1.79997346964631e+002°)
1.65958690743754e+000	(5.32396287679803e+001dB,-1.79997369042223e+002°)
1.66341265037015e+000	(5.32396287681661e+001dB,-1.79997391105866e+002°)
1.66724721255104e+000	(5.32396287683507e+001dB,-1.79997413155677e+002°)
1.67109061431069e+000	(5.32396287685343e+001dB,-1.79997435191773e+002°)
1.67494287602642e+000	(5.32396287687165e+001dB,-1.79997457214271e+002°)
1.67880401812254e+000	(5.32396287688974e+001dB,-1.79997479223286e+002°)
1.68267406107045e+000	(5.32396287690772e+001dB,-1.79997501218937e+002°)
1.68655302538872e+000	(5.32396287692560e+001dB,-1.79997523201340e+002°)
1.69044093164324e+000	(5.32396287694334e+001dB,-1.79997545170611e+002°)
1.69433780044731e+000	(5.32396287696095e+001dB,-1.79997567126867e+002°)
1.69824365246172e+000	(5.32396287697845e+001dB,-1.79997589070224e+002°)
1.70215850839493e+000	(5.32396287699584e+001dB,-1.79997611000798e+002°)
1.70608238900310e+000	(5.32396287701310e+001dB,-1.79997632918706e+002°)
1.71001531509027e+000	(5.32396287703025e+001dB,-1.79997654824064e+002°)
1.71395730750840e+000	(5.32396287704727e+001dB,-1.79997676716989e+002°)
1.71790838715757e+000	(5.32396287706419e+001dB,-1.79997698597595e+002°)
1.72186857498599e+000	(5.32396287708099e+001dB,-1.79997720466000e+002°)
1.72583789199018e+000	(5.32396287709766e+001dB,-1.79997742322318e+002°)
1.72981635921508e+000	(5.32396287711423e+001dB,-1.79997764166667e+002°)
1.73380399775412e+000	(5.32396287713067e+001dB,-1.79997785999162e+002°)
1.73780082874935e+000	(5.32396287714700e+001dB,-1.79997807819918e+002°)
1.74180687339159e+000	(5.32396287716323e+001dB,-1.79997829629051e+002°)
1.74582215292048e+000	(5.32396287717933e+001dB,-1.79997851426678e+002°)
1.74984668862464e+000	(5.32396287719532e+001dB,-1.79997873212913e+002°)
1.75388050184174e+000	(5.32396287721120e+001dB,-1.79997894987871e+002°)
1.75792361395867e+000	(5.32396287722695e+001dB,-1.79997916751670e+002°)
1.76197604641161e+000	(5.32396287724260e+001dB,-1.79997938504423e+002°)
1.76603782068614e+000	(5.32396287725814e+001dB,-1.79997960246246e+002°)
1.77010895831740e+000	(5.32396287727356e+001dB,-1.79997981977255e+002°)
1.77418948089014e+000	(5.32396287728885e+001dB,-1.79998003697564e+002°)
1.77827941003890e+000	(5.32396287730405e+001dB,-1.79998025407289e+002°)
1.78237876744807e+000	(5.32396287731915e+001dB,-1.79998047106545e+002°)
1.78648757485203e+000	(5.32396287733412e+001dB,-1.79998068795447e+002°)
1.79060585403527e+000	(5.32396287734898e+001dB,-1.79998090474110e+002°)
1.79473362683250e+000	(5.32396287736374e+001dB,-1.79998112142649e+002°)
1.79887091512876e+000	(5.32396287737837e+001dB,-1.79998133801178e+002°)
1.80301774085955e+000	(5.32396287739291e+001dB,-1.79998155449814e+002°)
1.80717412601090e+000	(5.32396287740734e+001dB,-1.79998177088669e+002°)
1.81134009261958e+000	(5.32396287742163e+001dB,-1.79998198717860e+002°)
1.81551566277311e+000	(5.32396287743585e+001dB,-1.79998220337500e+002°)
1.81970085860996e+000	(5.32396287744995e+001dB,-1.79998241947705e+002°)
1.82389570231961e+000	(5.32396287746394e+001dB,-1.79998263548589e+002°)
1.82810021614272e+000	(5.32396287747782e+001dB,-1.79998285140266e+002°)
1.83231442237119e+000	(5.32396287749159e+001dB,-1.79998306722852e+002°)
1.83653834334832e+000	(5.32396287750525e+001dB,-1.79998328296459e+002°)
1.84077200146893e+000	(5.32396287751879e+001dB,-1.79998349861204e+002°)
1.84501541917945e+000	(5.32396287753223e+001dB,-1.79998371417200e+002°)
1.84926861897805e+000	(5.32396287754559e+001dB,-1.79998392964561e+002°)
1.85353162341479e+000	(5.32396287755882e+001dB,-1.79998414503402e+002°)
1.85780445509167e+000	(5.32396287757195e+001dB,-1.79998436033836e+002°)
1.86208713666284e+000	(5.32396287757710e+001dB,-1.79998457555979e+002°)
1.86637969083464e+000	(5.32396287759002e+001dB,-1.79998479069944e+002°)
1.87068214036577e+000	(5.32396287760282e+001dB,-1.79998500575844e+002°)
1.87499450806739e+000	(5.32396287761553e+001dB,-1.79998522073796e+002°)
1.87931681680324e+000	(5.32396287762814e+001dB,-1.79998543563911e+002°)
1.88364908948977e+000	(5.32396287764063e+001dB,-1.79998565046304e+002°)
1.88799134909627e+000	(5.32396287765301e+001dB,-1.79998586521090e+002°)
