
**** 07/12/21 10:54:39 ******* PSpice 17.4.0 (Nov 2018) ******* ID# 0 ********

 ** Profile: "SCHEMATIC1-test1"  [ C:\Modeling\TLV3201_ti\TLV3201-PSpiceFiles\SCHEMATIC1\test1.sim ] 


 ****     CIRCUIT DESCRIPTION


******************************************************************************




** Creating circuit file "test1.cir" 
** WARNING: THIS AUTOMATICALLY GENERATED FILE MAY BE OVERWRITTEN BY SUBSEQUENT SIMULATIONS

*Libraries: 
* Profile Libraries :
* Local Libraries :
.LIB "../../../tlv3201.lib" 
* From [PSPICE NETLIST] section of C:\SPB_DATA\cdssetup\OrCAD_PSpice\17.4.0\PSpice.ini file:
.lib "nom.lib" 

*Analysis directives: 
.TRAN  0 5u 0 
.OPTIONS ADVCONV
.PROBE64 V(alias(*)) I(alias(*)) W(alias(*)) D(alias(*)) NOISE(alias(*)) 
.INC "..\SCHEMATIC1.net" 



**** INCLUDING SCHEMATIC1.net ****
* source TLV3201
.EXTERNAL INPUT IN-
.EXTERNAL INPUT IN+
.EXTERNAL INPUT Vcc
.EXTERNAL INPUT OUT
.EXTERNAL INPUT GND
X_U1         IN+ IN- VCC GND OUT TLV3201
V_VINN2         VCC 0 5
V_VINN         IN- 0 2.5
R_R2         0 GND  1m TC=0,0 
V_V1         IN+ 0  
+SIN 2.5 100m 500k 0 0 0

**** RESUMING test1.cir ****
.END

INFO(ORPSIM-15423): Unable to find index file tlv3201.ind for library file tlv3201.lib.

INFO(ORPSIM-15422): Making new index file tlv3201.ind for library file tlv3201.lib.

Index has 37 entries from 1 file(s).

**** 07/12/21 10:54:39 ******* PSpice 17.4.0 (Nov 2018) ******* ID# 0 ********

 ** Profile: "SCHEMATIC1-test1"  [ C:\Modeling\TLV3201_ti\TLV3201-PSpiceFiles\SCHEMATIC1\test1.sim ] 


 ****     Voltage Controlled Switch MODEL PARAMETERS


******************************************************************************




               X_U1.X_U5.X_SMID._SMID 
         RON    1            
        ROFF    1.000000E+12 
         VON    0            
        VOFF    1            


               X_U1.X_U5.X_SHIZ._SHIZ 
         RON    1            
        ROFF    1.000000E+12 
         VON    0            
        VOFF    1            


               X_U1.X_U5.X_SVOL._SVOL 
         RON    1            
        ROFF    1.000000E+12 
         VON    0            
        VOFF    1            


               X_U1.X_U5.X_SVOH._SVOH 
         RON    1            
        ROFF    1.000000E+12 
         VON    1            
        VOFF    0            


**** 07/12/21 10:54:39 ******* PSpice 17.4.0 (Nov 2018) ******* ID# 0 ********

 ** Profile: "SCHEMATIC1-test1"  [ C:\Modeling\TLV3201_ti\TLV3201-PSpiceFiles\SCHEMATIC1\test1.sim ] 


 ****     INITIAL TRANSIENT SOLUTION       TEMPERATURE =   27.000 DEG C


******************************************************************************



 NODE   VOLTAGE     NODE   VOLTAGE     NODE   VOLTAGE     NODE   VOLTAGE


(  GND) 40.00E-09  (  IN+)    2.5000  (  IN-)    2.5000  (  OUT)    5.0000      

(  VCC)    5.0000  (X_U1.N21103)    4.9505               (X_U1.N21168) 40.00E-09

(X_U1.N21237)    0.0000               (X_U1.IN+BUFF)    2.5000                  

(X_U1.IN-BUFF)    2.5000              (X_U1.N785573)    2.5010                  

(X_U1.N840186)    2.4752              (X_U1.N843683)    5.0000                  

(X_U1.N852568)     .0012              (X_U1.X_U3.VH) 600.0E-06                  

(X_U1.X_U5.1V)    1.0000              (X_U1.X_U7.1V)    1.0000                  

(X_U1.X_U3.OUT)    5.0000             (X_U1.X_U5.MID)    2.5000                 

(X_U1.V+_BUFFER)    5.0000            (X_U1.V-_BUFFER) 40.00E-09                

(X_U1.X_U3.VMID)    2.5000            (X_U1.X_U2.N20155)    5.2000              

(X_U1.X_U2.N20415)    -.2000          (X_U1.X_U2.N20531) 40.00E-09              

(X_U1.X_U2.N20539)    -.2000          (X_U1.X_U2.N20826) 40.00E-09              

(X_U1.X_U2.N20833) 40.00E-09          (X_U1.X_U2.N20840) 40.00E-09              

(X_U1.X_U3.INNNEW)    2.4994          (X_U1.X_U4.N03175)    2.4752              

(X_U1.X_U5.X_U3.3)    5.0000          (X_U1.X_U5.X_U8.6)    0.0000              

(X_U1.X_U2.N202710)    5.2000         (X_U1.X_U2.X_U24.6) 40.00E-09             

(X_U1.X_U5.N774212)    5.0000         (X_U1.X_U5.N774290)    4.0000             

(X_U1.X_U5.N778484)    5.0000         (X_U1.X_U5.N778496)    5.0000             

(X_U1.X_U5.N789513)    1.0000         (X_U1.X_U5.N850209)    5.0000             

(X_U1.X_U5.X_U10.4)    1.0000         (X_U1.X_U7.N784557)    5.5000             

(X_U1.X_U7.N784647)    5.0000         (X_U1.X_U7.N784661)    0.0000             

(X_U1.X_U7.N784771)    0.0000         (X_U1.X_U7.N784873)    2.6900             

(X_U1.X_U7.N785045)    2.6900         (X_U1.X_U7.X_U17.4)    0.0000             

(X_U1.X_U5.N8552942)    5.0000        (X_U1.X_U2.X_U1.OUT2) 40.00E-09           

(X_U1.X_U5.X_U7.VMID)    2.5000       (X_U1.X_U7.X_U5.OUT2)    0.0000           

(X_U1.X_U2.X_U21.OUT2) 40.00E-09      (X_U1.X_U2.X_U22.OUT2) 40.00E-09          

(X_U1.X_U2.X_U23.OUT2) 40.00E-09      (X_U1.X_U7.X_U13.OUT1)    5.0000          

(X_U1.X_U7.X_U15.OUT2)    0.0000      (X_U1.X_U7.X_U16.OUT2)    0.0000          

(X_U1.X_U5.CONTROL_HIZ)    0.0000     (X_U1.X_U5.CONTROL_MID)    1.0000     




    VOLTAGE SOURCE CURRENTS
    NAME         CURRENT

    V_VINN2     -4.000E-05
    V_VINN      -3.500E-12
    V_V1        -3.500E-12
    X_U1.V_VOS   0.000E+00
    X_U1.V_VHYST   0.000E+00
    X_U1.X_U2.V_VCMNP   0.000E+00
    X_U1.X_U2.V_VCMPN   0.000E+00
    X_U1.X_U2.V_VCMPP   0.000E+00
    X_U1.X_U2.V_VCMNN   0.000E+00
    X_U1.X_U5.V_VLOGIC   0.000E+00
    X_U1.X_U5.V_V1  -2.002E-09
    X_U1.X_U7.V_VS_MIN_SET   0.000E+00
    X_U1.X_U7.V_VLOGIC   0.000E+00
    X_U1.X_U7.V_VS_MAX_SET   0.000E+00
    X_U1.X_U7.V_VS_MIN_SET1   0.000E+00

    TOTAL POWER DISSIPATION   2.00E-04  WATTS



          JOB CONCLUDED

**** 07/12/21 10:54:39 ******* PSpice 17.4.0 (Nov 2018) ******* ID# 0 ********

 ** Profile: "SCHEMATIC1-test1"  [ C:\Modeling\TLV3201_ti\TLV3201-PSpiceFiles\SCHEMATIC1\test1.sim ] 


 ****     JOB STATISTICS SUMMARY


******************************************************************************



  Total job time (using Solver 1)   =         .45
